time	V(v_y)	V(v_out)	V(v_x)	V(v_90)	V(v_0)
0.000000000000000e+00	-2.117786e-01	4.436592e-01	-4.661494e-04	2.226866e-01	2.226866e-01
9.999999999344301e-11	-2.117845e-01	4.436630e-01	-4.659262e-04	2.226866e-01	2.226866e-01
2.999999999938815e-10	-2.117964e-01	4.436707e-01	-4.654796e-04	2.226866e-01	2.226866e-01
6.999999999947586e-10	-2.118202e-01	4.436861e-01	-4.645865e-04	2.226866e-01	2.226866e-01
1.499999999996513e-09	-2.118676e-01	4.437168e-01	-4.628004e-04	2.226866e-01	2.226866e-01
2.499999999998706e-09	-2.119269e-01	4.437551e-01	-4.605678e-04	2.226866e-01	2.226866e-01
3.500000000000898e-09	-2.119861e-01	4.437931e-01	-4.583352e-04	2.226866e-01	2.226866e-01
4.500000000003091e-09	-2.120452e-01	4.438309e-01	-4.561028e-04	2.226866e-01	2.226866e-01
5.500000000005284e-09	-2.121043e-01	4.438686e-01	-4.538704e-04	2.226866e-01	2.226866e-01
6.500000000007476e-09	-2.121632e-01	4.439061e-01	-4.516382e-04	2.226866e-01	2.226866e-01
7.500000000009669e-09	-2.122221e-01	4.439434e-01	-4.494060e-04	2.226866e-01	2.226866e-01
8.500000000011862e-09	-2.122808e-01	4.439805e-01	-4.471739e-04	2.226866e-01	2.226866e-01
9.500000000014054e-09	-2.123395e-01	4.440174e-01	-4.449419e-04	2.226866e-01	2.226866e-01
1.050000000001625e-08	-2.123981e-01	4.440542e-01	-4.427099e-04	2.226866e-01	2.226866e-01
1.150000000001844e-08	-2.124566e-01	4.440908e-01	-4.404781e-04	2.226866e-01	2.226866e-01
1.250000000002063e-08	-2.125150e-01	4.441272e-01	-4.382463e-04	2.226866e-01	2.226866e-01
1.350000000002283e-08	-2.125733e-01	4.441634e-01	-4.360147e-04	2.226866e-01	2.226866e-01
1.450000000002502e-08	-2.126315e-01	4.441994e-01	-4.337831e-04	2.226866e-01	2.226866e-01
1.550000000002721e-08	-2.126897e-01	4.442353e-01	-4.315517e-04	2.226866e-01	2.226866e-01
1.650000000002940e-08	-2.127478e-01	4.442709e-01	-4.293203e-04	2.226866e-01	2.226866e-01
1.750000000003160e-08	-2.128057e-01	4.443064e-01	-4.270890e-04	2.226866e-01	2.226866e-01
1.850000000003379e-08	-2.128636e-01	4.443417e-01	-4.248578e-04	2.226866e-01	2.226866e-01
1.950000000003598e-08	-2.129214e-01	4.443768e-01	-4.226267e-04	2.226866e-01	2.226866e-01
2.050000000003817e-08	-2.129791e-01	4.444118e-01	-4.203957e-04	2.226866e-01	2.226866e-01
2.150000000004037e-08	-2.130367e-01	4.444465e-01	-4.181648e-04	2.226866e-01	2.226866e-01
2.250000000004256e-08	-2.130943e-01	4.444811e-01	-4.159340e-04	2.226866e-01	2.226866e-01
2.350000000004475e-08	-2.131517e-01	4.445155e-01	-4.137034e-04	2.226866e-01	2.226866e-01
2.450000000004695e-08	-2.132091e-01	4.445497e-01	-4.114727e-04	2.226866e-01	2.226866e-01
2.550000000004914e-08	-2.132664e-01	4.445837e-01	-4.092423e-04	2.226866e-01	2.226866e-01
2.650000000005133e-08	-2.133235e-01	4.446176e-01	-4.070119e-04	2.226866e-01	2.226866e-01
2.750000000005352e-08	-2.133806e-01	4.446512e-01	-4.047816e-04	2.226866e-01	2.226866e-01
2.850000000005572e-08	-2.134377e-01	4.446847e-01	-4.025514e-04	2.226866e-01	2.226866e-01
2.950000000005791e-08	-2.134946e-01	4.447180e-01	-4.003214e-04	2.226866e-01	2.226866e-01
3.050000000006010e-08	-2.135514e-01	4.447511e-01	-3.980914e-04	2.226866e-01	2.226866e-01
3.150000000006229e-08	-2.136082e-01	4.447841e-01	-3.958615e-04	2.226866e-01	2.226866e-01
3.250000000006449e-08	-2.136648e-01	4.448168e-01	-3.936318e-04	2.226866e-01	2.226866e-01
3.350000000006668e-08	-2.137214e-01	4.448494e-01	-3.914022e-04	2.226866e-01	2.226866e-01
3.450000000006887e-08	-2.137779e-01	4.448818e-01	-3.891727e-04	2.226866e-01	2.226866e-01
3.550000000007106e-08	-2.138343e-01	4.449140e-01	-3.869433e-04	2.226866e-01	2.226866e-01
3.650000000007326e-08	-2.138906e-01	4.449460e-01	-3.847140e-04	2.226866e-01	2.226866e-01
3.750000000007545e-08	-2.139468e-01	4.449779e-01	-3.824848e-04	2.226866e-01	2.226866e-01
3.850000000007764e-08	-2.140030e-01	4.450096e-01	-3.802557e-04	2.226866e-01	2.226866e-01
3.950000000007984e-08	-2.140590e-01	4.450410e-01	-3.780267e-04	2.226866e-01	2.226866e-01
4.050000000008203e-08	-2.141150e-01	4.450723e-01	-3.757979e-04	2.226866e-01	2.226866e-01
4.150000000008422e-08	-2.141708e-01	4.451034e-01	-3.735692e-04	2.226866e-01	2.226866e-01
4.250000000008641e-08	-2.142266e-01	4.451344e-01	-3.713406e-04	2.226866e-01	2.226866e-01
4.350000000008861e-08	-2.142823e-01	4.451651e-01	-3.691121e-04	2.226866e-01	2.226866e-01
4.450000000009080e-08	-2.143379e-01	4.451957e-01	-3.668838e-04	2.226866e-01	2.226866e-01
4.550000000009299e-08	-2.143934e-01	4.452261e-01	-3.646555e-04	2.226866e-01	2.226866e-01
4.650000000009518e-08	-2.144489e-01	4.452563e-01	-3.624274e-04	2.226866e-01	2.226866e-01
4.750000000009738e-08	-2.145042e-01	4.452863e-01	-3.601995e-04	2.226866e-01	2.226866e-01
4.850000000009957e-08	-2.145595e-01	4.453162e-01	-3.579716e-04	2.226866e-01	2.226866e-01
4.950000000010176e-08	-2.146146e-01	4.453458e-01	-3.557438e-04	2.226866e-01	2.226866e-01
5.050000000010396e-08	-2.146697e-01	4.453753e-01	-3.535162e-04	2.226866e-01	2.226866e-01
5.150000000010615e-08	-2.147247e-01	4.454046e-01	-3.512888e-04	2.226866e-01	2.226866e-01
5.250000000010834e-08	-2.147796e-01	4.454338e-01	-3.490614e-04	2.226866e-01	2.226866e-01
5.350000000011053e-08	-2.148344e-01	4.454627e-01	-3.468342e-04	2.226866e-01	2.226866e-01
5.450000000011273e-08	-2.148892e-01	4.454914e-01	-3.446071e-04	2.226866e-01	2.226866e-01
5.550000000011492e-08	-2.149438e-01	4.455200e-01	-3.423801e-04	2.226866e-01	2.226866e-01
5.650000000011711e-08	-2.149983e-01	4.455484e-01	-3.401533e-04	2.226866e-01	2.226866e-01
5.750000000011930e-08	-2.150528e-01	4.455766e-01	-3.379266e-04	2.226866e-01	2.226866e-01
5.850000000012150e-08	-2.151072e-01	4.456047e-01	-3.357000e-04	2.226866e-01	2.226866e-01
5.950000000012369e-08	-2.151615e-01	4.456325e-01	-3.334736e-04	2.226866e-01	2.226866e-01
6.050000000012588e-08	-2.152157e-01	4.456602e-01	-3.312473e-04	2.226866e-01	2.226866e-01
6.150000000012808e-08	-2.152698e-01	4.456877e-01	-3.290211e-04	2.226866e-01	2.226866e-01
6.250000000013027e-08	-2.153238e-01	4.457150e-01	-3.267951e-04	2.226866e-01	2.226866e-01
6.350000000013246e-08	-2.153778e-01	4.457421e-01	-3.245692e-04	2.226866e-01	2.226866e-01
6.450000000013465e-08	-2.154316e-01	4.457690e-01	-3.223435e-04	2.226866e-01	2.226866e-01
6.550000000013685e-08	-2.154854e-01	4.457958e-01	-3.201179e-04	2.226866e-01	2.226866e-01
6.650000000013904e-08	-2.155390e-01	4.458224e-01	-3.178924e-04	2.226866e-01	2.226866e-01
6.750000000014123e-08	-2.155926e-01	4.458487e-01	-3.156671e-04	2.226866e-01	2.226866e-01
6.850000000014342e-08	-2.156461e-01	4.458750e-01	-3.134419e-04	2.226866e-01	2.226866e-01
6.950000000014562e-08	-2.156995e-01	4.459010e-01	-3.112169e-04	2.226866e-01	2.226866e-01
7.050000000014781e-08	-2.157529e-01	4.459268e-01	-3.089920e-04	2.226866e-01	2.226866e-01
7.150000000015000e-08	-2.158061e-01	4.459525e-01	-3.067672e-04	2.226866e-01	2.226866e-01
7.250000000015220e-08	-2.158592e-01	4.459780e-01	-3.045426e-04	2.226866e-01	2.226866e-01
7.350000000015439e-08	-2.159123e-01	4.460033e-01	-3.023182e-04	2.226866e-01	2.226866e-01
7.450000000015658e-08	-2.159653e-01	4.460284e-01	-3.000939e-04	2.226866e-01	2.226866e-01
7.550000000015877e-08	-2.160181e-01	4.460534e-01	-2.978697e-04	2.226866e-01	2.226866e-01
7.650000000016097e-08	-2.160709e-01	4.460782e-01	-2.956457e-04	2.226866e-01	2.226866e-01
7.750000000016316e-08	-2.161236e-01	4.461027e-01	-2.934219e-04	2.226866e-01	2.226866e-01
7.850000000016535e-08	-2.161762e-01	4.461271e-01	-2.911982e-04	2.226866e-01	2.226866e-01
7.950000000016754e-08	-2.162288e-01	4.461513e-01	-2.889746e-04	2.226866e-01	2.226866e-01
8.050000000016974e-08	-2.162812e-01	4.461754e-01	-2.867513e-04	2.226866e-01	2.226866e-01
8.150000000017193e-08	-2.163336e-01	4.461992e-01	-2.845280e-04	2.226866e-01	2.226866e-01
8.250000000017412e-08	-2.163858e-01	4.462229e-01	-2.823049e-04	2.226866e-01	2.226866e-01
8.350000000017632e-08	-2.164380e-01	4.462464e-01	-2.800820e-04	2.226866e-01	2.226866e-01
8.450000000017851e-08	-2.164901e-01	4.462697e-01	-2.778592e-04	2.226866e-01	2.226866e-01
8.550000000018070e-08	-2.165421e-01	4.462928e-01	-2.756366e-04	2.226866e-01	2.226866e-01
8.650000000018289e-08	-2.165940e-01	4.463158e-01	-2.734142e-04	2.226866e-01	2.226866e-01
8.750000000018509e-08	-2.166458e-01	4.463386e-01	-2.711919e-04	2.226866e-01	2.226866e-01
8.850000000018728e-08	-2.166975e-01	4.463612e-01	-2.689698e-04	2.226866e-01	2.226866e-01
8.950000000018947e-08	-2.167492e-01	4.463835e-01	-2.667478e-04	2.226866e-01	2.226866e-01
9.050000000019166e-08	-2.168007e-01	4.464058e-01	-2.645260e-04	2.226866e-01	2.226866e-01
9.150000000019386e-08	-2.168522e-01	4.464278e-01	-2.623044e-04	2.226866e-01	2.226866e-01
9.250000000019605e-08	-2.169036e-01	4.464497e-01	-2.600829e-04	2.226866e-01	2.226866e-01
9.350000000019824e-08	-2.169549e-01	4.464714e-01	-2.578616e-04	2.226866e-01	2.226866e-01
9.450000000020043e-08	-2.170061e-01	4.464929e-01	-2.556405e-04	2.226866e-01	2.226866e-01
9.550000000020263e-08	-2.170572e-01	4.465142e-01	-2.534195e-04	2.226866e-01	2.226866e-01
9.650000000020482e-08	-2.171082e-01	4.465353e-01	-2.511987e-04	2.226866e-01	2.226866e-01
9.750000000020701e-08	-2.171592e-01	4.465563e-01	-2.489781e-04	2.226866e-01	2.226866e-01
9.850000000020921e-08	-2.172100e-01	4.465770e-01	-2.467576e-04	2.226866e-01	2.226866e-01
9.950000000021140e-08	-2.172608e-01	4.465976e-01	-2.445373e-04	2.226866e-01	2.226866e-01
1.005000000002136e-07	-2.173115e-01	4.466181e-01	-2.423172e-04	2.226866e-01	2.226866e-01
1.015000000002158e-07	-2.173620e-01	4.466383e-01	-2.400972e-04	2.226866e-01	2.226866e-01
1.025000000002180e-07	-2.174125e-01	4.466583e-01	-2.378775e-04	2.226866e-01	2.226866e-01
1.035000000002202e-07	-2.174629e-01	4.466782e-01	-2.356579e-04	2.226866e-01	2.226866e-01
1.045000000002224e-07	-2.175133e-01	4.466979e-01	-2.334384e-04	2.226866e-01	2.226866e-01
1.055000000002246e-07	-2.175635e-01	4.467174e-01	-2.312192e-04	2.226866e-01	2.226866e-01
1.065000000002267e-07	-2.176136e-01	4.467367e-01	-2.290001e-04	2.226866e-01	2.226866e-01
1.075000000002289e-07	-2.176637e-01	4.467559e-01	-2.267812e-04	2.226866e-01	2.226866e-01
1.085000000002311e-07	-2.177137e-01	4.467748e-01	-2.245625e-04	2.226866e-01	2.226866e-01
1.095000000002333e-07	-2.177635e-01	4.467936e-01	-2.223440e-04	2.226866e-01	2.226866e-01
1.105000000002355e-07	-2.178133e-01	4.468122e-01	-2.201256e-04	2.226866e-01	2.226866e-01
1.115000000002377e-07	-2.178630e-01	4.468306e-01	-2.179075e-04	2.226866e-01	2.226866e-01
1.125000000002399e-07	-2.179126e-01	4.468489e-01	-2.156895e-04	2.226866e-01	2.226866e-01
1.135000000002421e-07	-2.179622e-01	4.468669e-01	-2.134717e-04	2.226866e-01	2.226866e-01
1.145000000002443e-07	-2.180116e-01	4.468848e-01	-2.112541e-04	2.226866e-01	2.226866e-01
1.155000000002465e-07	-2.180609e-01	4.469025e-01	-2.090366e-04	2.226866e-01	2.226866e-01
1.165000000002487e-07	-2.181102e-01	4.469200e-01	-2.068194e-04	2.226866e-01	2.226866e-01
1.175000000002509e-07	-2.181594e-01	4.469374e-01	-2.046023e-04	2.226866e-01	2.226866e-01
1.185000000002531e-07	-2.182084e-01	4.469545e-01	-2.023855e-04	2.226866e-01	2.226866e-01
1.195000000002553e-07	-2.182574e-01	4.469715e-01	-2.001688e-04	2.226866e-01	2.226866e-01
1.205000000002574e-07	-2.183063e-01	4.469883e-01	-1.979523e-04	2.226866e-01	2.226866e-01
1.215000000002596e-07	-2.183551e-01	4.470049e-01	-1.957360e-04	2.226866e-01	2.226866e-01
1.225000000002618e-07	-2.184039e-01	4.470213e-01	-1.935199e-04	2.226866e-01	2.226866e-01
1.235000000002640e-07	-2.184525e-01	4.470376e-01	-1.913040e-04	2.226866e-01	2.226866e-01
1.245000000002662e-07	-2.185011e-01	4.470536e-01	-1.890883e-04	2.226866e-01	2.226866e-01
1.255000000002684e-07	-2.185495e-01	4.470695e-01	-1.868727e-04	2.226866e-01	2.226866e-01
1.265000000002706e-07	-2.185979e-01	4.470852e-01	-1.846574e-04	2.226866e-01	2.226866e-01
1.275000000002728e-07	-2.186462e-01	4.471008e-01	-1.824423e-04	2.226866e-01	2.226866e-01
1.285000000002750e-07	-2.186944e-01	4.471161e-01	-1.802273e-04	2.226866e-01	2.226866e-01
1.295000000002772e-07	-2.187425e-01	4.471313e-01	-1.780126e-04	2.226866e-01	2.226866e-01
1.305000000002794e-07	-2.187905e-01	4.471463e-01	-1.757980e-04	2.226866e-01	2.226866e-01
1.315000000002816e-07	-2.188384e-01	4.471611e-01	-1.735837e-04	2.226866e-01	2.226866e-01
1.325000000002838e-07	-2.188863e-01	4.471757e-01	-1.713695e-04	2.226866e-01	2.226866e-01
1.335000000002860e-07	-2.189340e-01	4.471901e-01	-1.691556e-04	2.226866e-01	2.226866e-01
1.345000000002881e-07	-2.189817e-01	4.472044e-01	-1.669418e-04	2.226866e-01	2.226866e-01
1.355000000002903e-07	-2.190292e-01	4.472185e-01	-1.647283e-04	2.226866e-01	2.226866e-01
1.365000000002925e-07	-2.190767e-01	4.472324e-01	-1.625150e-04	2.226866e-01	2.226866e-01
1.375000000002947e-07	-2.191241e-01	4.472461e-01	-1.603018e-04	2.226866e-01	2.226866e-01
1.385000000002969e-07	-2.191714e-01	4.472597e-01	-1.580889e-04	2.226866e-01	2.226866e-01
1.395000000002991e-07	-2.192187e-01	4.472730e-01	-1.558762e-04	2.226866e-01	2.226866e-01
1.405000000003013e-07	-2.192658e-01	4.472862e-01	-1.536637e-04	2.226866e-01	2.226866e-01
1.415000000003035e-07	-2.193128e-01	4.472992e-01	-1.514514e-04	2.226866e-01	2.226866e-01
1.425000000003057e-07	-2.193598e-01	4.473120e-01	-1.492393e-04	2.226866e-01	2.226866e-01
1.435000000003079e-07	-2.194066e-01	4.473247e-01	-1.470274e-04	2.226866e-01	2.226866e-01
1.445000000003101e-07	-2.194534e-01	4.473371e-01	-1.448157e-04	2.226866e-01	2.226866e-01
1.455000000003123e-07	-2.195001e-01	4.473494e-01	-1.426043e-04	2.226866e-01	2.226866e-01
1.465000000003145e-07	-2.195467e-01	4.473615e-01	-1.403930e-04	2.226866e-01	2.226866e-01
1.475000000003166e-07	-2.195932e-01	4.473734e-01	-1.381820e-04	2.226866e-01	2.226866e-01
1.485000000003188e-07	-2.196396e-01	4.473852e-01	-1.359712e-04	2.226866e-01	2.226866e-01
1.495000000003210e-07	-2.196860e-01	4.473967e-01	-1.337606e-04	2.226866e-01	2.226866e-01
1.505000000003232e-07	-2.197322e-01	4.474081e-01	-1.315502e-04	2.226866e-01	2.226866e-01
1.515000000003254e-07	-2.197784e-01	4.474193e-01	-1.293400e-04	2.226866e-01	2.226866e-01
1.525000000003276e-07	-2.198244e-01	4.474303e-01	-1.271300e-04	2.226866e-01	2.226866e-01
1.535000000003298e-07	-2.198704e-01	4.474411e-01	-1.249203e-04	2.226866e-01	2.226866e-01
1.545000000003320e-07	-2.199163e-01	4.474518e-01	-1.227108e-04	2.226866e-01	2.226866e-01
1.555000000003342e-07	-2.199621e-01	4.474623e-01	-1.205015e-04	2.226866e-01	2.226866e-01
1.565000000003364e-07	-2.200078e-01	4.474725e-01	-1.182924e-04	2.226866e-01	2.226866e-01
1.575000000003386e-07	-2.200534e-01	4.474827e-01	-1.160836e-04	2.226866e-01	2.226866e-01
1.585000000003408e-07	-2.200989e-01	4.474926e-01	-1.138749e-04	2.226866e-01	2.226866e-01
1.595000000003430e-07	-2.201444e-01	4.475023e-01	-1.116665e-04	2.226866e-01	2.226866e-01
1.605000000003452e-07	-2.201897e-01	4.475119e-01	-1.094583e-04	2.226866e-01	2.226866e-01
1.615000000003473e-07	-2.202350e-01	4.475213e-01	-1.072504e-04	2.226866e-01	2.226866e-01
1.625000000003495e-07	-2.202802e-01	4.475305e-01	-1.050426e-04	2.226866e-01	2.226866e-01
1.635000000003517e-07	-2.203253e-01	4.475396e-01	-1.028351e-04	2.226866e-01	2.226866e-01
1.645000000003539e-07	-2.203703e-01	4.475484e-01	-1.006278e-04	2.226866e-01	2.226866e-01
1.655000000003561e-07	-2.204152e-01	4.475571e-01	-9.842079e-05	2.226866e-01	2.226866e-01
1.665000000003583e-07	-2.204600e-01	4.475656e-01	-9.621397e-05	2.226866e-01	2.226866e-01
1.675000000003605e-07	-2.205047e-01	4.475739e-01	-9.400738e-05	2.226866e-01	2.226866e-01
1.685000000003627e-07	-2.205494e-01	4.475820e-01	-9.180102e-05	2.226866e-01	2.226866e-01
1.695000000003649e-07	-2.205939e-01	4.475900e-01	-8.959489e-05	2.226866e-01	2.226866e-01
1.705000000003671e-07	-2.206384e-01	4.475978e-01	-8.738899e-05	2.226866e-01	2.226866e-01
1.715000000003693e-07	-2.206828e-01	4.476054e-01	-8.518333e-05	2.226866e-01	2.226866e-01
1.725000000003715e-07	-2.207270e-01	4.476128e-01	-8.297790e-05	2.226866e-01	2.226866e-01
1.735000000003737e-07	-2.207712e-01	4.476200e-01	-8.077271e-05	2.226866e-01	2.226866e-01
1.745000000003759e-07	-2.208153e-01	4.476271e-01	-7.856775e-05	2.226866e-01	2.226866e-01
1.755000000003780e-07	-2.208594e-01	4.476340e-01	-7.636304e-05	2.226866e-01	2.226866e-01
1.765000000003802e-07	-2.209033e-01	4.476406e-01	-7.415855e-05	2.226866e-01	2.226866e-01
1.775000000003824e-07	-2.209471e-01	4.476472e-01	-7.195431e-05	2.226866e-01	2.226866e-01
1.785000000003846e-07	-2.209909e-01	4.476535e-01	-6.975031e-05	2.226866e-01	2.226866e-01
1.795000000003868e-07	-2.210345e-01	4.476596e-01	-6.754655e-05	2.226866e-01	2.226866e-01
1.805000000003890e-07	-2.210781e-01	4.476656e-01	-6.534303e-05	2.226866e-01	2.226866e-01
1.815000000003912e-07	-2.211216e-01	4.476714e-01	-6.313975e-05	2.226866e-01	2.226866e-01
1.825000000003934e-07	-2.211650e-01	4.476770e-01	-6.093671e-05	2.226866e-01	2.226866e-01
1.835000000003956e-07	-2.212083e-01	4.476825e-01	-5.873392e-05	2.226866e-01	2.226866e-01
1.845000000003978e-07	-2.212515e-01	4.476877e-01	-5.653137e-05	2.226866e-01	2.226866e-01
1.855000000004000e-07	-2.212947e-01	4.476928e-01	-5.432907e-05	2.226866e-01	2.226866e-01
1.865000000004022e-07	-2.213377e-01	4.476977e-01	-5.212701e-05	2.226866e-01	2.226866e-01
1.875000000004044e-07	-2.213807e-01	4.477024e-01	-4.992520e-05	2.226866e-01	2.226866e-01
1.885000000004065e-07	-2.214235e-01	4.477069e-01	-4.772364e-05	2.226866e-01	2.226866e-01
1.895000000004087e-07	-2.214663e-01	4.477113e-01	-4.552232e-05	2.226866e-01	2.226866e-01
1.905000000004109e-07	-2.215090e-01	4.477155e-01	-4.332126e-05	2.226866e-01	2.226866e-01
1.915000000004131e-07	-2.215516e-01	4.477195e-01	-4.112044e-05	2.226866e-01	2.226866e-01
1.925000000004153e-07	-2.215941e-01	4.477233e-01	-3.891988e-05	2.226866e-01	2.226866e-01
1.935000000004175e-07	-2.216365e-01	4.477269e-01	-3.671957e-05	2.226866e-01	2.226866e-01
1.945000000004197e-07	-2.216788e-01	4.477304e-01	-3.451951e-05	2.226866e-01	2.226866e-01
1.955000000004219e-07	-2.217210e-01	4.477337e-01	-3.231971e-05	2.226866e-01	2.226866e-01
1.965000000004241e-07	-2.217632e-01	4.477368e-01	-3.012015e-05	2.226866e-01	2.226866e-01
1.975000000004263e-07	-2.218052e-01	4.477397e-01	-2.792086e-05	2.226866e-01	2.226866e-01
1.985000000004285e-07	-2.218472e-01	4.477425e-01	-2.572182e-05	2.226866e-01	2.226866e-01
1.995000000004307e-07	-2.218891e-01	4.477450e-01	-2.352304e-05	2.226866e-01	2.226866e-01
2.005000000004329e-07	-2.219309e-01	4.477474e-01	-2.132451e-05	2.226866e-01	2.226866e-01
2.015000000004351e-07	-2.219726e-01	4.477496e-01	-1.912624e-05	2.226866e-01	2.226866e-01
2.025000000004372e-07	-2.220142e-01	4.477516e-01	-1.692824e-05	2.226866e-01	2.226866e-01
2.035000000004394e-07	-2.220557e-01	4.477535e-01	-1.473049e-05	2.226866e-01	2.226866e-01
2.045000000004416e-07	-2.220972e-01	4.477552e-01	-1.253300e-05	2.226866e-01	2.226866e-01
2.055000000004438e-07	-2.221385e-01	4.477566e-01	-1.033578e-05	2.226866e-01	2.226866e-01
2.065000000004460e-07	-2.221798e-01	4.477579e-01	-8.138816e-06	2.226866e-01	2.226866e-01
2.075000000004482e-07	-2.222209e-01	4.477591e-01	-5.942117e-06	2.226866e-01	2.226866e-01
2.085000000004504e-07	-2.222620e-01	4.477600e-01	-3.745683e-06	2.226866e-01	2.226866e-01
2.095000000004526e-07	-2.223030e-01	4.477608e-01	-1.549513e-06	2.226866e-01	2.226866e-01
2.105000000004548e-07	-2.223439e-01	4.477614e-01	6.463914e-07	2.226866e-01	2.226866e-01
2.115000000004570e-07	-2.223847e-01	4.477618e-01	2.842029e-06	2.226866e-01	2.226866e-01
2.125000000004592e-07	-2.224254e-01	4.477620e-01	5.037399e-06	2.226866e-01	2.226866e-01
2.135000000004614e-07	-2.224661e-01	4.477621e-01	7.232501e-06	2.226866e-01	2.226866e-01
2.145000000004636e-07	-2.225066e-01	4.477620e-01	9.427334e-06	2.226866e-01	2.226866e-01
2.155000000004658e-07	-2.225471e-01	4.477617e-01	1.162190e-05	2.226866e-01	2.226866e-01
2.165000000004679e-07	-2.225874e-01	4.477612e-01	1.381619e-05	2.226866e-01	2.226866e-01
2.175000000004701e-07	-2.226277e-01	4.477605e-01	1.601021e-05	2.226866e-01	2.226866e-01
2.185000000004723e-07	-2.226679e-01	4.477597e-01	1.820396e-05	2.226866e-01	2.226866e-01
2.195000000004745e-07	-2.227080e-01	4.477586e-01	2.039744e-05	2.226866e-01	2.226866e-01
2.205000000004767e-07	-2.227480e-01	4.477575e-01	2.259064e-05	2.226866e-01	2.226866e-01
