time	V(v_y)	V(v_out)	V(v_x)	V(v_90)	V(v_0)
0.000000000000000e+00	7.424448e-02	4.115606e-01	-1.432812e-03	2.226866e-01	2.226866e-01
9.999999999344301e-11	7.424780e-02	4.115723e-01	-1.432599e-03	2.226866e-01	2.226866e-01
2.999999999938815e-10	7.425442e-02	4.115958e-01	-1.432172e-03	2.226866e-01	2.226866e-01
6.999999999947586e-10	7.426766e-02	4.116427e-01	-1.431320e-03	2.226866e-01	2.226866e-01
1.499999999996513e-09	7.429412e-02	4.117365e-01	-1.429614e-03	2.226866e-01	2.226866e-01
2.499999999998706e-09	7.432716e-02	4.118535e-01	-1.427481e-03	2.226866e-01	2.226866e-01
3.500000000000898e-09	7.436015e-02	4.119703e-01	-1.425348e-03	2.226866e-01	2.226866e-01
4.500000000003091e-09	7.439310e-02	4.120871e-01	-1.423215e-03	2.226866e-01	2.226866e-01
5.500000000005284e-09	7.442602e-02	4.122036e-01	-1.421081e-03	2.226866e-01	2.226866e-01
6.500000000007476e-09	7.445888e-02	4.123199e-01	-1.418947e-03	2.226866e-01	2.226866e-01
7.500000000009669e-09	7.449171e-02	4.124361e-01	-1.416813e-03	2.226866e-01	2.226866e-01
8.500000000011862e-09	7.452450e-02	4.125521e-01	-1.414678e-03	2.226866e-01	2.226866e-01
9.500000000014054e-09	7.455724e-02	4.126679e-01	-1.412543e-03	2.226866e-01	2.226866e-01
1.050000000001625e-08	7.458995e-02	4.127835e-01	-1.410407e-03	2.226866e-01	2.226866e-01
1.150000000001844e-08	7.462260e-02	4.128990e-01	-1.408272e-03	2.226866e-01	2.226866e-01
1.250000000002063e-08	7.465522e-02	4.130143e-01	-1.406136e-03	2.226866e-01	2.226866e-01
1.350000000002283e-08	7.468779e-02	4.131294e-01	-1.403999e-03	2.226866e-01	2.226866e-01
1.450000000002502e-08	7.472033e-02	4.132443e-01	-1.401862e-03	2.226866e-01	2.226866e-01
1.550000000002721e-08	7.475282e-02	4.133591e-01	-1.399725e-03	2.226866e-01	2.226866e-01
1.650000000002940e-08	7.478528e-02	4.134737e-01	-1.397588e-03	2.226866e-01	2.226866e-01
1.750000000003160e-08	7.481768e-02	4.135881e-01	-1.395450e-03	2.226866e-01	2.226866e-01
1.850000000003379e-08	7.485005e-02	4.137024e-01	-1.393312e-03	2.226866e-01	2.226866e-01
1.950000000003598e-08	7.488237e-02	4.138165e-01	-1.391173e-03	2.226866e-01	2.226866e-01
2.050000000003817e-08	7.491466e-02	4.139304e-01	-1.389035e-03	2.226866e-01	2.226866e-01
2.150000000004037e-08	7.494690e-02	4.140441e-01	-1.386896e-03	2.226866e-01	2.226866e-01
2.250000000004256e-08	7.497910e-02	4.141576e-01	-1.384756e-03	2.226866e-01	2.226866e-01
2.350000000004475e-08	7.501126e-02	4.142710e-01	-1.382616e-03	2.226866e-01	2.226866e-01
2.450000000004695e-08	7.504338e-02	4.143842e-01	-1.380476e-03	2.226866e-01	2.226866e-01
2.550000000004914e-08	7.507546e-02	4.144972e-01	-1.378336e-03	2.226866e-01	2.226866e-01
2.650000000005133e-08	7.510749e-02	4.146101e-01	-1.376195e-03	2.226866e-01	2.226866e-01
2.750000000005352e-08	7.513949e-02	4.147228e-01	-1.374054e-03	2.226866e-01	2.226866e-01
2.850000000005572e-08	7.517143e-02	4.148353e-01	-1.371913e-03	2.226866e-01	2.226866e-01
2.950000000005791e-08	7.520334e-02	4.149476e-01	-1.369771e-03	2.226866e-01	2.226866e-01
3.050000000006010e-08	7.523522e-02	4.150598e-01	-1.367629e-03	2.226866e-01	2.226866e-01
3.150000000006229e-08	7.526704e-02	4.151717e-01	-1.365486e-03	2.226866e-01	2.226866e-01
3.250000000006449e-08	7.529883e-02	4.152836e-01	-1.363344e-03	2.226866e-01	2.226866e-01
3.350000000006668e-08	7.533057e-02	4.153952e-01	-1.361201e-03	2.226866e-01	2.226866e-01
3.450000000006887e-08	7.536227e-02	4.155066e-01	-1.359057e-03	2.226866e-01	2.226866e-01
3.550000000007106e-08	7.539394e-02	4.156179e-01	-1.356914e-03	2.226866e-01	2.226866e-01
3.650000000007326e-08	7.542556e-02	4.157290e-01	-1.354770e-03	2.226866e-01	2.226866e-01
3.750000000007545e-08	7.545713e-02	4.158400e-01	-1.352625e-03	2.226866e-01	2.226866e-01
3.850000000007764e-08	7.548867e-02	4.159507e-01	-1.350481e-03	2.226866e-01	2.226866e-01
3.950000000007984e-08	7.552017e-02	4.160613e-01	-1.348336e-03	2.226866e-01	2.226866e-01
4.050000000008203e-08	7.555162e-02	4.161717e-01	-1.346191e-03	2.226866e-01	2.226866e-01
4.150000000008422e-08	7.558303e-02	4.162819e-01	-1.344045e-03	2.226866e-01	2.226866e-01
4.250000000008641e-08	7.561441e-02	4.163920e-01	-1.341899e-03	2.226866e-01	2.226866e-01
4.350000000008861e-08	7.564574e-02	4.165019e-01	-1.339753e-03	2.226866e-01	2.226866e-01
4.450000000009080e-08	7.567703e-02	4.166116e-01	-1.337607e-03	2.226866e-01	2.226866e-01
4.550000000009299e-08	7.570828e-02	4.167211e-01	-1.335460e-03	2.226866e-01	2.226866e-01
4.650000000009518e-08	7.573948e-02	4.168305e-01	-1.333313e-03	2.226866e-01	2.226866e-01
4.750000000009738e-08	7.577065e-02	4.169397e-01	-1.331166e-03	2.226866e-01	2.226866e-01
4.850000000009957e-08	7.580177e-02	4.170487e-01	-1.329018e-03	2.226866e-01	2.226866e-01
4.950000000010176e-08	7.583286e-02	4.171575e-01	-1.326870e-03	2.226866e-01	2.226866e-01
5.050000000010396e-08	7.586390e-02	4.172662e-01	-1.324722e-03	2.226866e-01	2.226866e-01
5.150000000010615e-08	7.589490e-02	4.173747e-01	-1.322573e-03	2.226866e-01	2.226866e-01
5.250000000010834e-08	7.592586e-02	4.174830e-01	-1.320424e-03	2.226866e-01	2.226866e-01
5.350000000011053e-08	7.595678e-02	4.175911e-01	-1.318275e-03	2.226866e-01	2.226866e-01
5.450000000011273e-08	7.598766e-02	4.176991e-01	-1.316126e-03	2.226866e-01	2.226866e-01
5.550000000011492e-08	7.601850e-02	4.178068e-01	-1.313976e-03	2.226866e-01	2.226866e-01
5.650000000011711e-08	7.604930e-02	4.179145e-01	-1.311826e-03	2.226866e-01	2.226866e-01
5.750000000011930e-08	7.608005e-02	4.180219e-01	-1.309676e-03	2.226866e-01	2.226866e-01
5.850000000012150e-08	7.611077e-02	4.181291e-01	-1.307525e-03	2.226866e-01	2.226866e-01
5.950000000012369e-08	7.614144e-02	4.182362e-01	-1.305374e-03	2.226866e-01	2.226866e-01
6.050000000012588e-08	7.617207e-02	4.183431e-01	-1.303223e-03	2.226866e-01	2.226866e-01
6.150000000012808e-08	7.620266e-02	4.184498e-01	-1.301071e-03	2.226866e-01	2.226866e-01
6.250000000013027e-08	7.623322e-02	4.185564e-01	-1.298920e-03	2.226866e-01	2.226866e-01
6.350000000013246e-08	7.626373e-02	4.186628e-01	-1.296768e-03	2.226866e-01	2.226866e-01
6.450000000013465e-08	7.629419e-02	4.187690e-01	-1.294615e-03	2.226866e-01	2.226866e-01
6.550000000013685e-08	7.632462e-02	4.188750e-01	-1.292463e-03	2.226866e-01	2.226866e-01
6.650000000013904e-08	7.635501e-02	4.189809e-01	-1.290310e-03	2.226866e-01	2.226866e-01
6.750000000014123e-08	7.638536e-02	4.190865e-01	-1.288157e-03	2.226866e-01	2.226866e-01
6.850000000014342e-08	7.641566e-02	4.191920e-01	-1.286003e-03	2.226866e-01	2.226866e-01
6.950000000014562e-08	7.644593e-02	4.192974e-01	-1.283849e-03	2.226866e-01	2.226866e-01
7.050000000014781e-08	7.647615e-02	4.194025e-01	-1.281695e-03	2.226866e-01	2.226866e-01
7.150000000015000e-08	7.650633e-02	4.195075e-01	-1.279541e-03	2.226866e-01	2.226866e-01
7.250000000015220e-08	7.653648e-02	4.196123e-01	-1.277387e-03	2.226866e-01	2.226866e-01
7.350000000015439e-08	7.656658e-02	4.197169e-01	-1.275232e-03	2.226866e-01	2.226866e-01
7.450000000015658e-08	7.659664e-02	4.198214e-01	-1.273077e-03	2.226866e-01	2.226866e-01
7.550000000015877e-08	7.662666e-02	4.199257e-01	-1.270921e-03	2.226866e-01	2.226866e-01
7.650000000016097e-08	7.665664e-02	4.200298e-01	-1.268766e-03	2.226866e-01	2.226866e-01
7.750000000016316e-08	7.668658e-02	4.201337e-01	-1.266610e-03	2.226866e-01	2.226866e-01
7.850000000016535e-08	7.671648e-02	4.202374e-01	-1.264453e-03	2.226866e-01	2.226866e-01
7.950000000016754e-08	7.674634e-02	4.203410e-01	-1.262297e-03	2.226866e-01	2.226866e-01
8.050000000016974e-08	7.677615e-02	4.204444e-01	-1.260140e-03	2.226866e-01	2.226866e-01
8.150000000017193e-08	7.680593e-02	4.205476e-01	-1.257983e-03	2.226866e-01	2.226866e-01
8.250000000017412e-08	7.683567e-02	4.206507e-01	-1.255826e-03	2.226866e-01	2.226866e-01
8.350000000017632e-08	7.686537e-02	4.207535e-01	-1.253668e-03	2.226866e-01	2.226866e-01
8.450000000017851e-08	7.689503e-02	4.208562e-01	-1.251511e-03	2.226866e-01	2.226866e-01
8.550000000018070e-08	7.692464e-02	4.209587e-01	-1.249352e-03	2.226866e-01	2.226866e-01
8.650000000018289e-08	7.695422e-02	4.210611e-01	-1.247194e-03	2.226866e-01	2.226866e-01
8.750000000018509e-08	7.698375e-02	4.211632e-01	-1.245036e-03	2.226866e-01	2.226866e-01
8.850000000018728e-08	7.701325e-02	4.212652e-01	-1.242877e-03	2.226866e-01	2.226866e-01
8.950000000018947e-08	7.704270e-02	4.213670e-01	-1.240718e-03	2.226866e-01	2.226866e-01
9.050000000019166e-08	7.707211e-02	4.214686e-01	-1.238558e-03	2.226866e-01	2.226866e-01
9.150000000019386e-08	7.710148e-02	4.215701e-01	-1.236399e-03	2.226866e-01	2.226866e-01
9.250000000019605e-08	7.713082e-02	4.216714e-01	-1.234239e-03	2.226866e-01	2.226866e-01
9.350000000019824e-08	7.716011e-02	4.217725e-01	-1.232079e-03	2.226866e-01	2.226866e-01
9.450000000020043e-08	7.718936e-02	4.218735e-01	-1.229918e-03	2.226866e-01	2.226866e-01
9.550000000020263e-08	7.721858e-02	4.219742e-01	-1.227758e-03	2.226866e-01	2.226866e-01
9.650000000020482e-08	7.724775e-02	4.220748e-01	-1.225597e-03	2.226866e-01	2.226866e-01
9.750000000020701e-08	7.727688e-02	4.221752e-01	-1.223436e-03	2.226866e-01	2.226866e-01
9.850000000020921e-08	7.730597e-02	4.222754e-01	-1.221274e-03	2.226866e-01	2.226866e-01
9.950000000021140e-08	7.733502e-02	4.223754e-01	-1.219113e-03	2.226866e-01	2.226866e-01
1.005000000002136e-07	7.736403e-02	4.224753e-01	-1.216951e-03	2.226866e-01	2.226866e-01
1.015000000002158e-07	7.739300e-02	4.225750e-01	-1.214789e-03	2.226866e-01	2.226866e-01
1.025000000002180e-07	7.742193e-02	4.226745e-01	-1.212626e-03	2.226866e-01	2.226866e-01
1.035000000002202e-07	7.745083e-02	4.227739e-01	-1.210464e-03	2.226866e-01	2.226866e-01
1.045000000002224e-07	7.747968e-02	4.228730e-01	-1.208301e-03	2.226866e-01	2.226866e-01
1.055000000002246e-07	7.750849e-02	4.229721e-01	-1.206138e-03	2.226866e-01	2.226866e-01
1.065000000002267e-07	7.753725e-02	4.230709e-01	-1.203975e-03	2.226866e-01	2.226866e-01
1.075000000002289e-07	7.756599e-02	4.231695e-01	-1.201811e-03	2.226866e-01	2.226866e-01
1.085000000002311e-07	7.759468e-02	4.232680e-01	-1.199647e-03	2.226866e-01	2.226866e-01
1.095000000002333e-07	7.762333e-02	4.233662e-01	-1.197483e-03	2.226866e-01	2.226866e-01
1.105000000002355e-07	7.765194e-02	4.234644e-01	-1.195319e-03	2.226866e-01	2.226866e-01
1.115000000002377e-07	7.768051e-02	4.235623e-01	-1.193154e-03	2.226866e-01	2.226866e-01
1.125000000002399e-07	7.770904e-02	4.236601e-01	-1.190990e-03	2.226866e-01	2.226866e-01
1.135000000002421e-07	7.773753e-02	4.237576e-01	-1.188825e-03	2.226866e-01	2.226866e-01
1.145000000002443e-07	7.776598e-02	4.238550e-01	-1.186660e-03	2.226866e-01	2.226866e-01
1.155000000002465e-07	7.779440e-02	4.239523e-01	-1.184494e-03	2.226866e-01	2.226866e-01
1.165000000002487e-07	7.782277e-02	4.240493e-01	-1.182329e-03	2.226866e-01	2.226866e-01
1.175000000002509e-07	7.785109e-02	4.241462e-01	-1.180163e-03	2.226866e-01	2.226866e-01
1.185000000002531e-07	7.787938e-02	4.242429e-01	-1.177997e-03	2.226866e-01	2.226866e-01
1.195000000002553e-07	7.790764e-02	4.243394e-01	-1.175830e-03	2.226866e-01	2.226866e-01
1.205000000002574e-07	7.793585e-02	4.244358e-01	-1.173664e-03	2.226866e-01	2.226866e-01
1.215000000002596e-07	7.796402e-02	4.245319e-01	-1.171497e-03	2.226866e-01	2.226866e-01
1.225000000002618e-07	7.799216e-02	4.246279e-01	-1.169330e-03	2.226866e-01	2.226866e-01
1.235000000002640e-07	7.802024e-02	4.247237e-01	-1.167163e-03	2.226866e-01	2.226866e-01
1.245000000002662e-07	7.804830e-02	4.248194e-01	-1.164995e-03	2.226866e-01	2.226866e-01
1.255000000002684e-07	7.807631e-02	4.249148e-01	-1.162827e-03	2.226866e-01	2.226866e-01
1.265000000002706e-07	7.810429e-02	4.250101e-01	-1.160660e-03	2.226866e-01	2.226866e-01
1.275000000002728e-07	7.813222e-02	4.251052e-01	-1.158491e-03	2.226866e-01	2.226866e-01
1.285000000002750e-07	7.816011e-02	4.252002e-01	-1.156323e-03	2.226866e-01	2.226866e-01
1.295000000002772e-07	7.818797e-02	4.252949e-01	-1.154155e-03	2.226866e-01	2.226866e-01
1.305000000002794e-07	7.821579e-02	4.253895e-01	-1.151986e-03	2.226866e-01	2.226866e-01
1.315000000002816e-07	7.824356e-02	4.254839e-01	-1.149817e-03	2.226866e-01	2.226866e-01
1.325000000002838e-07	7.827130e-02	4.255781e-01	-1.147648e-03	2.226866e-01	2.226866e-01
1.335000000002860e-07	7.829899e-02	4.256722e-01	-1.145478e-03	2.226866e-01	2.226866e-01
1.345000000002881e-07	7.832665e-02	4.257661e-01	-1.143309e-03	2.226866e-01	2.226866e-01
1.355000000002903e-07	7.835427e-02	4.258597e-01	-1.141139e-03	2.226866e-01	2.226866e-01
1.365000000002925e-07	7.838184e-02	4.259532e-01	-1.138969e-03	2.226866e-01	2.226866e-01
1.375000000002947e-07	7.840938e-02	4.260466e-01	-1.136799e-03	2.226866e-01	2.226866e-01
1.385000000002969e-07	7.843688e-02	4.261397e-01	-1.134628e-03	2.226866e-01	2.226866e-01
1.395000000002991e-07	7.846434e-02	4.262328e-01	-1.132458e-03	2.226866e-01	2.226866e-01
1.405000000003013e-07	7.849176e-02	4.263256e-01	-1.130287e-03	2.226866e-01	2.226866e-01
1.415000000003035e-07	7.851914e-02	4.264182e-01	-1.128116e-03	2.226866e-01	2.226866e-01
1.425000000003057e-07	7.854649e-02	4.265106e-01	-1.125944e-03	2.226866e-01	2.226866e-01
1.435000000003079e-07	7.857379e-02	4.266029e-01	-1.123773e-03	2.226866e-01	2.226866e-01
1.445000000003101e-07	7.860105e-02	4.266950e-01	-1.121601e-03	2.226866e-01	2.226866e-01
1.455000000003123e-07	7.862827e-02	4.267869e-01	-1.119429e-03	2.226866e-01	2.226866e-01
1.465000000003145e-07	7.865546e-02	4.268787e-01	-1.117257e-03	2.226866e-01	2.226866e-01
1.475000000003166e-07	7.868260e-02	4.269703e-01	-1.115085e-03	2.226866e-01	2.226866e-01
1.485000000003188e-07	7.870971e-02	4.270616e-01	-1.112913e-03	2.226866e-01	2.226866e-01
1.495000000003210e-07	7.873677e-02	4.271529e-01	-1.110740e-03	2.226866e-01	2.226866e-01
1.505000000003232e-07	7.876381e-02	4.272439e-01	-1.108567e-03	2.226866e-01	2.226866e-01
1.515000000003254e-07	7.879079e-02	4.273348e-01	-1.106394e-03	2.226866e-01	2.226866e-01
1.525000000003276e-07	7.881774e-02	4.274254e-01	-1.104221e-03	2.226866e-01	2.226866e-01
1.535000000003298e-07	7.884465e-02	4.275160e-01	-1.102048e-03	2.226866e-01	2.226866e-01
1.545000000003320e-07	7.887153e-02	4.276063e-01	-1.099874e-03	2.226866e-01	2.226866e-01
1.555000000003342e-07	7.889836e-02	4.276964e-01	-1.097700e-03	2.226866e-01	2.226866e-01
1.565000000003364e-07	7.892515e-02	4.277864e-01	-1.095526e-03	2.226866e-01	2.226866e-01
1.575000000003386e-07	7.895190e-02	4.278762e-01	-1.093352e-03	2.226866e-01	2.226866e-01
1.585000000003408e-07	7.897861e-02	4.279658e-01	-1.091178e-03	2.226866e-01	2.226866e-01
1.595000000003430e-07	7.900529e-02	4.280553e-01	-1.089003e-03	2.226866e-01	2.226866e-01
1.605000000003452e-07	7.903193e-02	4.281445e-01	-1.086828e-03	2.226866e-01	2.226866e-01
1.615000000003473e-07	7.905853e-02	4.282336e-01	-1.084653e-03	2.226866e-01	2.226866e-01
1.625000000003495e-07	7.908508e-02	4.283226e-01	-1.082478e-03	2.226866e-01	2.226866e-01
1.635000000003517e-07	7.911161e-02	4.284113e-01	-1.080303e-03	2.226866e-01	2.226866e-01
1.645000000003539e-07	7.913809e-02	4.284998e-01	-1.078128e-03	2.226866e-01	2.226866e-01
1.655000000003561e-07	7.916453e-02	4.285882e-01	-1.075952e-03	2.226866e-01	2.226866e-01
1.665000000003583e-07	7.919093e-02	4.286764e-01	-1.073776e-03	2.226866e-01	2.226866e-01
1.675000000003605e-07	7.921729e-02	4.287644e-01	-1.071600e-03	2.226866e-01	2.226866e-01
1.685000000003627e-07	7.924362e-02	4.288523e-01	-1.069424e-03	2.226866e-01	2.226866e-01
1.695000000003649e-07	7.926991e-02	4.289400e-01	-1.067248e-03	2.226866e-01	2.226866e-01
1.705000000003671e-07	7.929616e-02	4.290275e-01	-1.065071e-03	2.226866e-01	2.226866e-01
1.715000000003693e-07	7.932236e-02	4.291148e-01	-1.062894e-03	2.226866e-01	2.226866e-01
1.725000000003715e-07	7.934853e-02	4.292019e-01	-1.060718e-03	2.226866e-01	2.226866e-01
1.735000000003737e-07	7.937466e-02	4.292889e-01	-1.058541e-03	2.226866e-01	2.226866e-01
1.745000000003759e-07	7.940076e-02	4.293756e-01	-1.056363e-03	2.226866e-01	2.226866e-01
1.755000000003780e-07	7.942681e-02	4.294623e-01	-1.054186e-03	2.226866e-01	2.226866e-01
1.765000000003802e-07	7.945283e-02	4.295487e-01	-1.052008e-03	2.226866e-01	2.226866e-01
1.775000000003824e-07	7.947881e-02	4.296349e-01	-1.049831e-03	2.226866e-01	2.226866e-01
1.785000000003846e-07	7.950474e-02	4.297210e-01	-1.047653e-03	2.226866e-01	2.226866e-01
1.795000000003868e-07	7.953064e-02	4.298069e-01	-1.045475e-03	2.226866e-01	2.226866e-01
1.805000000003890e-07	7.955650e-02	4.298926e-01	-1.043297e-03	2.226866e-01	2.226866e-01
1.815000000003912e-07	7.958233e-02	4.299782e-01	-1.041118e-03	2.226866e-01	2.226866e-01
1.825000000003934e-07	7.960811e-02	4.300635e-01	-1.038940e-03	2.226866e-01	2.226866e-01
1.835000000003956e-07	7.963385e-02	4.301487e-01	-1.036761e-03	2.226866e-01	2.226866e-01
1.845000000003978e-07	7.965956e-02	4.302337e-01	-1.034582e-03	2.226866e-01	2.226866e-01
1.855000000004000e-07	7.968523e-02	4.303185e-01	-1.032403e-03	2.226866e-01	2.226866e-01
1.865000000004022e-07	7.971086e-02	4.304032e-01	-1.030224e-03	2.226866e-01	2.226866e-01
1.875000000004044e-07	7.973645e-02	4.304877e-01	-1.028045e-03	2.226866e-01	2.226866e-01
1.885000000004065e-07	7.976200e-02	4.305720e-01	-1.025865e-03	2.226866e-01	2.226866e-01
1.895000000004087e-07	7.978752e-02	4.306561e-01	-1.023686e-03	2.226866e-01	2.226866e-01
1.905000000004109e-07	7.981300e-02	4.307400e-01	-1.021506e-03	2.226866e-01	2.226866e-01
1.915000000004131e-07	7.983843e-02	4.308238e-01	-1.019326e-03	2.226866e-01	2.226866e-01
1.925000000004153e-07	7.986383e-02	4.309074e-01	-1.017146e-03	2.226866e-01	2.226866e-01
1.935000000004175e-07	7.988919e-02	4.309908e-01	-1.014965e-03	2.226866e-01	2.226866e-01
1.945000000004197e-07	7.991452e-02	4.310740e-01	-1.012785e-03	2.226866e-01	2.226866e-01
1.955000000004219e-07	7.993980e-02	4.311571e-01	-1.010605e-03	2.226866e-01	2.226866e-01
1.965000000004241e-07	7.996505e-02	4.312399e-01	-1.008424e-03	2.226866e-01	2.226866e-01
1.975000000004263e-07	7.999025e-02	4.313226e-01	-1.006243e-03	2.226866e-01	2.226866e-01
1.985000000004285e-07	8.001542e-02	4.314052e-01	-1.004062e-03	2.226866e-01	2.226866e-01
1.995000000004307e-07	8.004055e-02	4.314875e-01	-1.001881e-03	2.226866e-01	2.226866e-01
2.005000000004329e-07	8.006565e-02	4.315697e-01	-9.996997e-04	2.226866e-01	2.226866e-01
2.015000000004351e-07	8.009070e-02	4.316516e-01	-9.975182e-04	2.226866e-01	2.226866e-01
2.025000000004372e-07	8.011572e-02	4.317334e-01	-9.953367e-04	2.226866e-01	2.226866e-01
2.035000000004394e-07	8.014070e-02	4.318151e-01	-9.931549e-04	2.226866e-01	2.226866e-01
2.045000000004416e-07	8.016564e-02	4.318965e-01	-9.909731e-04	2.226866e-01	2.226866e-01
2.055000000004438e-07	8.019054e-02	4.319778e-01	-9.887911e-04	2.226866e-01	2.226866e-01
2.065000000004460e-07	8.021541e-02	4.320589e-01	-9.866090e-04	2.226866e-01	2.226866e-01
2.075000000004482e-07	8.024023e-02	4.321398e-01	-9.844267e-04	2.226866e-01	2.226866e-01
2.085000000004504e-07	8.026502e-02	4.322205e-01	-9.822444e-04	2.226866e-01	2.226866e-01
2.095000000004526e-07	8.028977e-02	4.323011e-01	-9.800618e-04	2.226866e-01	2.226866e-01
2.105000000004548e-07	8.031449e-02	4.323815e-01	-9.778792e-04	2.226866e-01	2.226866e-01
2.115000000004570e-07	8.033916e-02	4.324617e-01	-9.756963e-04	2.226866e-01	2.226866e-01
2.125000000004592e-07	8.036380e-02	4.325417e-01	-9.735134e-04	2.226866e-01	2.226866e-01
2.135000000004614e-07	8.038839e-02	4.326216e-01	-9.713303e-04	2.226866e-01	2.226866e-01
2.145000000004636e-07	8.041295e-02	4.327013e-01	-9.691471e-04	2.226866e-01	2.226866e-01
2.155000000004658e-07	8.043747e-02	4.327807e-01	-9.669638e-04	2.226866e-01	2.226866e-01
2.165000000004679e-07	8.046196e-02	4.328601e-01	-9.647803e-04	2.226866e-01	2.226866e-01
2.175000000004701e-07	8.048641e-02	4.329392e-01	-9.625967e-04	2.226866e-01	2.226866e-01
2.185000000004723e-07	8.051082e-02	4.330181e-01	-9.604130e-04	2.226866e-01	2.226866e-01
2.195000000004745e-07	8.053519e-02	4.330969e-01	-9.582292e-04	2.226866e-01	2.226866e-01
2.205000000004767e-07	8.055952e-02	4.331755e-01	-9.560452e-04	2.226866e-01	2.226866e-01
2.215000000004789e-07	8.058382e-02	4.332540e-01	-9.538612e-04	2.226866e-01	2.226866e-01
2.225000000004811e-07	8.060808e-02	4.333322e-01	-9.516770e-04	2.226866e-01	2.226866e-01
