time	V(v_y)	V(v_out)	V(v_x)	V(v_90)	V(v_0)
0.000000000000000e+00	-7.993396e-01	-3.624049e-03	-5.671946e-05	2.226866e-01	2.226866e-01
9.999999999344301e-11	-7.992571e-01	-3.623611e-03	-5.672006e-05	2.226866e-01	2.226866e-01
2.999999999938815e-10	-7.990921e-01	-3.622735e-03	-5.672126e-05	2.226866e-01	2.226866e-01
6.999999999947586e-10	-7.987620e-01	-3.620982e-03	-5.672365e-05	2.226866e-01	2.226866e-01
1.499999999996513e-09	-7.981018e-01	-3.617476e-03	-5.672842e-05	2.226866e-01	2.226866e-01
2.499999999998706e-09	-7.972764e-01	-3.613092e-03	-5.673436e-05	2.226866e-01	2.226866e-01
3.500000000000898e-09	-7.964507e-01	-3.608708e-03	-5.674028e-05	2.226866e-01	2.226866e-01
4.500000000003091e-09	-7.956248e-01	-3.604323e-03	-5.674617e-05	2.226866e-01	2.226866e-01
5.500000000005284e-09	-7.947987e-01	-3.599937e-03	-5.675205e-05	2.226866e-01	2.226866e-01
6.500000000007476e-09	-7.939723e-01	-3.595551e-03	-5.675790e-05	2.226866e-01	2.226866e-01
7.500000000009669e-09	-7.931458e-01	-3.591164e-03	-5.676373e-05	2.226866e-01	2.226866e-01
8.500000000011862e-09	-7.923191e-01	-3.586776e-03	-5.676953e-05	2.226866e-01	2.226866e-01
9.500000000014054e-09	-7.914921e-01	-3.582387e-03	-5.677532e-05	2.226866e-01	2.226866e-01
1.050000000001625e-08	-7.906649e-01	-3.577998e-03	-5.678107e-05	2.226866e-01	2.226866e-01
1.150000000001844e-08	-7.898375e-01	-3.573608e-03	-5.678681e-05	2.226866e-01	2.226866e-01
1.250000000002063e-08	-7.890099e-01	-3.569217e-03	-5.679253e-05	2.226866e-01	2.226866e-01
1.350000000002283e-08	-7.881821e-01	-3.564826e-03	-5.679822e-05	2.226866e-01	2.226866e-01
1.450000000002502e-08	-7.873541e-01	-3.560433e-03	-5.680388e-05	2.226866e-01	2.226866e-01
1.550000000002721e-08	-7.865258e-01	-3.556040e-03	-5.680953e-05	2.226866e-01	2.226866e-01
1.650000000002940e-08	-7.856974e-01	-3.551647e-03	-5.681516e-05	2.226866e-01	2.226866e-01
1.750000000003160e-08	-7.848688e-01	-3.547252e-03	-5.682075e-05	2.226866e-01	2.226866e-01
1.850000000003379e-08	-7.840399e-01	-3.542857e-03	-5.682633e-05	2.226866e-01	2.226866e-01
1.950000000003598e-08	-7.832108e-01	-3.538462e-03	-5.683189e-05	2.226866e-01	2.226866e-01
2.050000000003817e-08	-7.823815e-01	-3.534065e-03	-5.683742e-05	2.226866e-01	2.226866e-01
2.150000000004037e-08	-7.815521e-01	-3.529668e-03	-5.684293e-05	2.226866e-01	2.226866e-01
2.250000000004256e-08	-7.807224e-01	-3.525270e-03	-5.684841e-05	2.226866e-01	2.226866e-01
2.350000000004475e-08	-7.798924e-01	-3.520871e-03	-5.685388e-05	2.226866e-01	2.226866e-01
2.450000000004695e-08	-7.790623e-01	-3.516472e-03	-5.685932e-05	2.226866e-01	2.226866e-01
2.550000000004914e-08	-7.782320e-01	-3.512072e-03	-5.686474e-05	2.226866e-01	2.226866e-01
2.650000000005133e-08	-7.774015e-01	-3.507671e-03	-5.687013e-05	2.226866e-01	2.226866e-01
2.750000000005352e-08	-7.765707e-01	-3.503270e-03	-5.687551e-05	2.226866e-01	2.226866e-01
2.850000000005572e-08	-7.757398e-01	-3.498868e-03	-5.688085e-05	2.226866e-01	2.226866e-01
2.950000000005791e-08	-7.749087e-01	-3.494465e-03	-5.688618e-05	2.226866e-01	2.226866e-01
3.050000000006010e-08	-7.740774e-01	-3.490061e-03	-5.689148e-05	2.226866e-01	2.226866e-01
3.150000000006229e-08	-7.732458e-01	-3.485657e-03	-5.689677e-05	2.226866e-01	2.226866e-01
3.250000000006449e-08	-7.724140e-01	-3.481253e-03	-5.690202e-05	2.226866e-01	2.226866e-01
3.350000000006668e-08	-7.715821e-01	-3.476847e-03	-5.690726e-05	2.226866e-01	2.226866e-01
3.450000000006887e-08	-7.707499e-01	-3.472441e-03	-5.691247e-05	2.226866e-01	2.226866e-01
3.550000000007106e-08	-7.699175e-01	-3.468034e-03	-5.691766e-05	2.226866e-01	2.226866e-01
3.650000000007326e-08	-7.690850e-01	-3.463626e-03	-5.692283e-05	2.226866e-01	2.226866e-01
3.750000000007545e-08	-7.682522e-01	-3.459218e-03	-5.692797e-05	2.226866e-01	2.226866e-01
3.850000000007764e-08	-7.674193e-01	-3.454809e-03	-5.693310e-05	2.226866e-01	2.226866e-01
3.950000000007984e-08	-7.665861e-01	-3.450399e-03	-5.693820e-05	2.226866e-01	2.226866e-01
4.050000000008203e-08	-7.657527e-01	-3.445989e-03	-5.694327e-05	2.226866e-01	2.226866e-01
4.150000000008422e-08	-7.649192e-01	-3.441578e-03	-5.694832e-05	2.226866e-01	2.226866e-01
4.250000000008641e-08	-7.640854e-01	-3.437167e-03	-5.695335e-05	2.226866e-01	2.226866e-01
4.350000000008861e-08	-7.632514e-01	-3.432754e-03	-5.695836e-05	2.226866e-01	2.226866e-01
4.450000000009080e-08	-7.624172e-01	-3.428341e-03	-5.696334e-05	2.226866e-01	2.226866e-01
4.550000000009299e-08	-7.615829e-01	-3.423928e-03	-5.696831e-05	2.226866e-01	2.226866e-01
4.650000000009518e-08	-7.607483e-01	-3.419513e-03	-5.697325e-05	2.226866e-01	2.226866e-01
4.750000000009738e-08	-7.599135e-01	-3.415098e-03	-5.697817e-05	2.226866e-01	2.226866e-01
4.850000000009957e-08	-7.590785e-01	-3.410683e-03	-5.698306e-05	2.226866e-01	2.226866e-01
4.950000000010176e-08	-7.582434e-01	-3.406266e-03	-5.698793e-05	2.226866e-01	2.226866e-01
5.050000000010396e-08	-7.574080e-01	-3.401849e-03	-5.699278e-05	2.226866e-01	2.226866e-01
5.150000000010615e-08	-7.565724e-01	-3.397432e-03	-5.699760e-05	2.226866e-01	2.226866e-01
5.250000000010834e-08	-7.557367e-01	-3.393014e-03	-5.700241e-05	2.226866e-01	2.226866e-01
5.350000000011053e-08	-7.549008e-01	-3.388595e-03	-5.700719e-05	2.226866e-01	2.226866e-01
5.450000000011273e-08	-7.540646e-01	-3.384175e-03	-5.701194e-05	2.226866e-01	2.226866e-01
5.550000000011492e-08	-7.532282e-01	-3.379755e-03	-5.701668e-05	2.226866e-01	2.226866e-01
5.650000000011711e-08	-7.523917e-01	-3.375334e-03	-5.702139e-05	2.226866e-01	2.226866e-01
5.750000000011930e-08	-7.515550e-01	-3.370913e-03	-5.702608e-05	2.226866e-01	2.226866e-01
5.850000000012150e-08	-7.507181e-01	-3.366491e-03	-5.703074e-05	2.226866e-01	2.226866e-01
5.950000000012369e-08	-7.498809e-01	-3.362068e-03	-5.703539e-05	2.226866e-01	2.226866e-01
6.050000000012588e-08	-7.490436e-01	-3.357645e-03	-5.704001e-05	2.226866e-01	2.226866e-01
6.150000000012808e-08	-7.482061e-01	-3.353221e-03	-5.704461e-05	2.226866e-01	2.226866e-01
6.250000000013027e-08	-7.473684e-01	-3.348796e-03	-5.704918e-05	2.226866e-01	2.226866e-01
6.350000000013246e-08	-7.465305e-01	-3.344371e-03	-5.705373e-05	2.226866e-01	2.226866e-01
6.450000000013465e-08	-7.456924e-01	-3.339945e-03	-5.705826e-05	2.226866e-01	2.226866e-01
6.550000000013685e-08	-7.448542e-01	-3.335518e-03	-5.706277e-05	2.226866e-01	2.226866e-01
6.650000000013904e-08	-7.440156e-01	-3.331091e-03	-5.706725e-05	2.226866e-01	2.226866e-01
6.750000000014123e-08	-7.431770e-01	-3.326663e-03	-5.707171e-05	2.226866e-01	2.226866e-01
6.850000000014342e-08	-7.423381e-01	-3.322235e-03	-5.707615e-05	2.226866e-01	2.226866e-01
6.950000000014562e-08	-7.414991e-01	-3.317806e-03	-5.708057e-05	2.226866e-01	2.226866e-01
7.050000000014781e-08	-7.406599e-01	-3.313376e-03	-5.708496e-05	2.226866e-01	2.226866e-01
7.150000000015000e-08	-7.398205e-01	-3.308946e-03	-5.708933e-05	2.226866e-01	2.226866e-01
7.250000000015220e-08	-7.389808e-01	-3.304515e-03	-5.709368e-05	2.226866e-01	2.226866e-01
7.350000000015439e-08	-7.381411e-01	-3.300084e-03	-5.709800e-05	2.226866e-01	2.226866e-01
7.450000000015658e-08	-7.373011e-01	-3.295652e-03	-5.710230e-05	2.226866e-01	2.226866e-01
7.550000000015877e-08	-7.364609e-01	-3.291219e-03	-5.710658e-05	2.226866e-01	2.226866e-01
7.650000000016097e-08	-7.356205e-01	-3.286785e-03	-5.711084e-05	2.226866e-01	2.226866e-01
7.750000000016316e-08	-7.347800e-01	-3.282352e-03	-5.711507e-05	2.226866e-01	2.226866e-01
7.850000000016535e-08	-7.339392e-01	-3.277917e-03	-5.711928e-05	2.226866e-01	2.226866e-01
7.950000000016754e-08	-7.330983e-01	-3.273482e-03	-5.712347e-05	2.226866e-01	2.226866e-01
8.050000000016974e-08	-7.322572e-01	-3.269046e-03	-5.712764e-05	2.226866e-01	2.226866e-01
8.150000000017193e-08	-7.314159e-01	-3.264610e-03	-5.713178e-05	2.226866e-01	2.226866e-01
8.250000000017412e-08	-7.305744e-01	-3.260173e-03	-5.713590e-05	2.226866e-01	2.226866e-01
8.350000000017632e-08	-7.297328e-01	-3.255735e-03	-5.714000e-05	2.226866e-01	2.226866e-01
8.450000000017851e-08	-7.288909e-01	-3.251297e-03	-5.714407e-05	2.226866e-01	2.226866e-01
8.550000000018070e-08	-7.280489e-01	-3.246859e-03	-5.714813e-05	2.226866e-01	2.226866e-01
8.650000000018289e-08	-7.272066e-01	-3.242419e-03	-5.715215e-05	2.226866e-01	2.226866e-01
8.750000000018509e-08	-7.263643e-01	-3.237979e-03	-5.715616e-05	2.226866e-01	2.226866e-01
8.850000000018728e-08	-7.255217e-01	-3.233539e-03	-5.716014e-05	2.226866e-01	2.226866e-01
8.950000000018947e-08	-7.246789e-01	-3.229098e-03	-5.716410e-05	2.226866e-01	2.226866e-01
9.050000000019166e-08	-7.238359e-01	-3.224656e-03	-5.716804e-05	2.226866e-01	2.226866e-01
9.150000000019386e-08	-7.229928e-01	-3.220214e-03	-5.717196e-05	2.226866e-01	2.226866e-01
9.250000000019605e-08	-7.221495e-01	-3.215771e-03	-5.717585e-05	2.226866e-01	2.226866e-01
9.350000000019824e-08	-7.213060e-01	-3.211328e-03	-5.717972e-05	2.226866e-01	2.226866e-01
9.450000000020043e-08	-7.204623e-01	-3.206884e-03	-5.718357e-05	2.226866e-01	2.226866e-01
9.550000000020263e-08	-7.196184e-01	-3.202439e-03	-5.718739e-05	2.226866e-01	2.226866e-01
9.650000000020482e-08	-7.187744e-01	-3.197994e-03	-5.719119e-05	2.226866e-01	2.226866e-01
9.750000000020701e-08	-7.179302e-01	-3.193549e-03	-5.719497e-05	2.226866e-01	2.226866e-01
9.850000000020921e-08	-7.170858e-01	-3.189102e-03	-5.719873e-05	2.226866e-01	2.226866e-01
9.950000000021140e-08	-7.162412e-01	-3.184655e-03	-5.720246e-05	2.226866e-01	2.226866e-01
1.005000000002136e-07	-7.153965e-01	-3.180208e-03	-5.720617e-05	2.226866e-01	2.226866e-01
1.015000000002158e-07	-7.145515e-01	-3.175760e-03	-5.720986e-05	2.226866e-01	2.226866e-01
1.025000000002180e-07	-7.137064e-01	-3.171312e-03	-5.721352e-05	2.226866e-01	2.226866e-01
1.035000000002202e-07	-7.128611e-01	-3.166863e-03	-5.721717e-05	2.226866e-01	2.226866e-01
1.045000000002224e-07	-7.120156e-01	-3.162413e-03	-5.722079e-05	2.226866e-01	2.226866e-01
1.055000000002246e-07	-7.111700e-01	-3.157963e-03	-5.722438e-05	2.226866e-01	2.226866e-01
1.065000000002267e-07	-7.103242e-01	-3.153512e-03	-5.722796e-05	2.226866e-01	2.226866e-01
1.075000000002289e-07	-7.094782e-01	-3.149061e-03	-5.723151e-05	2.226866e-01	2.226866e-01
1.085000000002311e-07	-7.086320e-01	-3.144609e-03	-5.723504e-05	2.226866e-01	2.226866e-01
1.095000000002333e-07	-7.077857e-01	-3.140157e-03	-5.723855e-05	2.226866e-01	2.226866e-01
1.105000000002355e-07	-7.069392e-01	-3.135704e-03	-5.724203e-05	2.226866e-01	2.226866e-01
1.115000000002377e-07	-7.060924e-01	-3.131250e-03	-5.724549e-05	2.226866e-01	2.226866e-01
1.125000000002399e-07	-7.052456e-01	-3.126796e-03	-5.724893e-05	2.226866e-01	2.226866e-01
1.135000000002421e-07	-7.043985e-01	-3.122342e-03	-5.725234e-05	2.226866e-01	2.226866e-01
1.145000000002443e-07	-7.035513e-01	-3.117887e-03	-5.725574e-05	2.226866e-01	2.226866e-01
1.155000000002465e-07	-7.027039e-01	-3.113431e-03	-5.725911e-05	2.226866e-01	2.226866e-01
1.165000000002487e-07	-7.018563e-01	-3.108975e-03	-5.726246e-05	2.226866e-01	2.226866e-01
1.175000000002509e-07	-7.010086e-01	-3.104518e-03	-5.726578e-05	2.226866e-01	2.226866e-01
1.185000000002531e-07	-7.001607e-01	-3.100061e-03	-5.726908e-05	2.226866e-01	2.226866e-01
1.195000000002553e-07	-6.993126e-01	-3.095603e-03	-5.727236e-05	2.226866e-01	2.226866e-01
1.205000000002574e-07	-6.984643e-01	-3.091145e-03	-5.727562e-05	2.226866e-01	2.226866e-01
1.215000000002596e-07	-6.976159e-01	-3.086686e-03	-5.727885e-05	2.226866e-01	2.226866e-01
1.225000000002618e-07	-6.967673e-01	-3.082227e-03	-5.728206e-05	2.226866e-01	2.226866e-01
1.235000000002640e-07	-6.959185e-01	-3.077767e-03	-5.728525e-05	2.226866e-01	2.226866e-01
1.245000000002662e-07	-6.950696e-01	-3.073306e-03	-5.728842e-05	2.226866e-01	2.226866e-01
1.255000000002684e-07	-6.942205e-01	-3.068845e-03	-5.729156e-05	2.226866e-01	2.226866e-01
1.265000000002706e-07	-6.933712e-01	-3.064384e-03	-5.729468e-05	2.226866e-01	2.226866e-01
1.275000000002728e-07	-6.925218e-01	-3.059922e-03	-5.729778e-05	2.226866e-01	2.226866e-01
1.285000000002750e-07	-6.916721e-01	-3.055460e-03	-5.730085e-05	2.226866e-01	2.226866e-01
1.295000000002772e-07	-6.908223e-01	-3.050997e-03	-5.730390e-05	2.226866e-01	2.226866e-01
1.305000000002794e-07	-6.899723e-01	-3.046533e-03	-5.730693e-05	2.226866e-01	2.226866e-01
1.315000000002816e-07	-6.891223e-01	-3.042069e-03	-5.730994e-05	2.226866e-01	2.226866e-01
1.325000000002838e-07	-6.882719e-01	-3.037605e-03	-5.731293e-05	2.226866e-01	2.226866e-01
1.335000000002860e-07	-6.874215e-01	-3.033140e-03	-5.731589e-05	2.226866e-01	2.226866e-01
1.345000000002881e-07	-6.865709e-01	-3.028674e-03	-5.731883e-05	2.226866e-01	2.226866e-01
1.355000000002903e-07	-6.857201e-01	-3.024208e-03	-5.732174e-05	2.226866e-01	2.226866e-01
1.365000000002925e-07	-6.848691e-01	-3.019742e-03	-5.732464e-05	2.226866e-01	2.226866e-01
1.375000000002947e-07	-6.840180e-01	-3.015275e-03	-5.732751e-05	2.226866e-01	2.226866e-01
1.385000000002969e-07	-6.831667e-01	-3.010807e-03	-5.733036e-05	2.226866e-01	2.226866e-01
1.395000000002991e-07	-6.823152e-01	-3.006339e-03	-5.733318e-05	2.226866e-01	2.226866e-01
1.405000000003013e-07	-6.814637e-01	-3.001871e-03	-5.733599e-05	2.226866e-01	2.226866e-01
1.415000000003035e-07	-6.806118e-01	-2.997402e-03	-5.733877e-05	2.226866e-01	2.226866e-01
1.425000000003057e-07	-6.797599e-01	-2.992932e-03	-5.734152e-05	2.226866e-01	2.226866e-01
1.435000000003079e-07	-6.789078e-01	-2.988462e-03	-5.734426e-05	2.226866e-01	2.226866e-01
1.445000000003101e-07	-6.780555e-01	-2.983992e-03	-5.734697e-05	2.226866e-01	2.226866e-01
1.455000000003123e-07	-6.772031e-01	-2.979521e-03	-5.734966e-05	2.226866e-01	2.226866e-01
1.465000000003145e-07	-6.763505e-01	-2.975049e-03	-5.735233e-05	2.226866e-01	2.226866e-01
1.475000000003166e-07	-6.754978e-01	-2.970577e-03	-5.735497e-05	2.226866e-01	2.226866e-01
1.485000000003188e-07	-6.746448e-01	-2.966105e-03	-5.735759e-05	2.226866e-01	2.226866e-01
1.495000000003210e-07	-6.737918e-01	-2.961632e-03	-5.736019e-05	2.226866e-01	2.226866e-01
1.505000000003232e-07	-6.729385e-01	-2.957159e-03	-5.736277e-05	2.226866e-01	2.226866e-01
1.515000000003254e-07	-6.720851e-01	-2.952685e-03	-5.736532e-05	2.226866e-01	2.226866e-01
1.525000000003276e-07	-6.712315e-01	-2.948211e-03	-5.736786e-05	2.226866e-01	2.226866e-01
1.535000000003298e-07	-6.703778e-01	-2.943736e-03	-5.737036e-05	2.226866e-01	2.226866e-01
1.545000000003320e-07	-6.695239e-01	-2.939261e-03	-5.737285e-05	2.226866e-01	2.226866e-01
1.555000000003342e-07	-6.686699e-01	-2.934785e-03	-5.737531e-05	2.226866e-01	2.226866e-01
1.565000000003364e-07	-6.678157e-01	-2.930309e-03	-5.737775e-05	2.226866e-01	2.226866e-01
1.575000000003386e-07	-6.669613e-01	-2.925833e-03	-5.738017e-05	2.226866e-01	2.226866e-01
1.585000000003408e-07	-6.661068e-01	-2.921355e-03	-5.738257e-05	2.226866e-01	2.226866e-01
1.595000000003430e-07	-6.652521e-01	-2.916878e-03	-5.738494e-05	2.226866e-01	2.226866e-01
1.605000000003452e-07	-6.643973e-01	-2.912400e-03	-5.738729e-05	2.226866e-01	2.226866e-01
1.615000000003473e-07	-6.635423e-01	-2.907922e-03	-5.738962e-05	2.226866e-01	2.226866e-01
1.625000000003495e-07	-6.626871e-01	-2.903443e-03	-5.739192e-05	2.226866e-01	2.226866e-01
1.635000000003517e-07	-6.618319e-01	-2.898963e-03	-5.739421e-05	2.226866e-01	2.226866e-01
1.645000000003539e-07	-6.609764e-01	-2.894484e-03	-5.739646e-05	2.226866e-01	2.226866e-01
1.655000000003561e-07	-6.601208e-01	-2.890003e-03	-5.739870e-05	2.226866e-01	2.226866e-01
1.665000000003583e-07	-6.592650e-01	-2.885523e-03	-5.740091e-05	2.226866e-01	2.226866e-01
1.675000000003605e-07	-6.584091e-01	-2.881041e-03	-5.740311e-05	2.226866e-01	2.226866e-01
1.685000000003627e-07	-6.575530e-01	-2.876560e-03	-5.740528e-05	2.226866e-01	2.226866e-01
1.695000000003649e-07	-6.566967e-01	-2.872078e-03	-5.740742e-05	2.226866e-01	2.226866e-01
1.705000000003671e-07	-6.558403e-01	-2.867595e-03	-5.740955e-05	2.226866e-01	2.226866e-01
1.715000000003693e-07	-6.549838e-01	-2.863113e-03	-5.741165e-05	2.226866e-01	2.226866e-01
1.725000000003715e-07	-6.541271e-01	-2.858629e-03	-5.741373e-05	2.226866e-01	2.226866e-01
1.735000000003737e-07	-6.532702e-01	-2.854145e-03	-5.741578e-05	2.226866e-01	2.226866e-01
1.745000000003759e-07	-6.524132e-01	-2.849661e-03	-5.741782e-05	2.226866e-01	2.226866e-01
1.755000000003780e-07	-6.515561e-01	-2.845177e-03	-5.741983e-05	2.226866e-01	2.226866e-01
1.765000000003802e-07	-6.506988e-01	-2.840691e-03	-5.742181e-05	2.226866e-01	2.226866e-01
1.775000000003824e-07	-6.498413e-01	-2.836206e-03	-5.742378e-05	2.226866e-01	2.226866e-01
1.785000000003846e-07	-6.489837e-01	-2.831720e-03	-5.742572e-05	2.226866e-01	2.226866e-01
1.795000000003868e-07	-6.481259e-01	-2.827234e-03	-5.742765e-05	2.226866e-01	2.226866e-01
1.805000000003890e-07	-6.472681e-01	-2.822747e-03	-5.742954e-05	2.226866e-01	2.226866e-01
1.815000000003912e-07	-6.464100e-01	-2.818260e-03	-5.743142e-05	2.226866e-01	2.226866e-01
1.825000000003934e-07	-6.455518e-01	-2.813772e-03	-5.743327e-05	2.226866e-01	2.226866e-01
1.835000000003956e-07	-6.446934e-01	-2.809284e-03	-5.743510e-05	2.226866e-01	2.226866e-01
1.845000000003978e-07	-6.438349e-01	-2.804796e-03	-5.743691e-05	2.226866e-01	2.226866e-01
1.855000000004000e-07	-6.429762e-01	-2.800307e-03	-5.743869e-05	2.226866e-01	2.226866e-01
1.865000000004022e-07	-6.421174e-01	-2.795818e-03	-5.744045e-05	2.226866e-01	2.226866e-01
1.875000000004044e-07	-6.412585e-01	-2.791328e-03	-5.744219e-05	2.226866e-01	2.226866e-01
1.885000000004065e-07	-6.403994e-01	-2.786838e-03	-5.744391e-05	2.226866e-01	2.226866e-01
1.895000000004087e-07	-6.395401e-01	-2.782348e-03	-5.744561e-05	2.226866e-01	2.226866e-01
1.905000000004109e-07	-6.386808e-01	-2.777857e-03	-5.744728e-05	2.226866e-01	2.226866e-01
1.915000000004131e-07	-6.378212e-01	-2.773366e-03	-5.744893e-05	2.226866e-01	2.226866e-01
1.925000000004153e-07	-6.369615e-01	-2.768874e-03	-5.745055e-05	2.226866e-01	2.226866e-01
1.935000000004175e-07	-6.361017e-01	-2.764382e-03	-5.745216e-05	2.226866e-01	2.226866e-01
1.945000000004197e-07	-6.352417e-01	-2.759889e-03	-5.745374e-05	2.226866e-01	2.226866e-01
1.955000000004219e-07	-6.343815e-01	-2.755397e-03	-5.745530e-05	2.226866e-01	2.226866e-01
1.965000000004241e-07	-6.335213e-01	-2.750904e-03	-5.745684e-05	2.226866e-01	2.226866e-01
1.975000000004263e-07	-6.326609e-01	-2.746410e-03	-5.745835e-05	2.226866e-01	2.226866e-01
1.985000000004285e-07	-6.318003e-01	-2.741916e-03	-5.745984e-05	2.226866e-01	2.226866e-01
1.995000000004307e-07	-6.309396e-01	-2.737422e-03	-5.746131e-05	2.226866e-01	2.226866e-01
2.005000000004329e-07	-6.300787e-01	-2.732927e-03	-5.746276e-05	2.226866e-01	2.226866e-01
2.015000000004351e-07	-6.292177e-01	-2.728431e-03	-5.746418e-05	2.226866e-01	2.226866e-01
2.025000000004372e-07	-6.283566e-01	-2.723936e-03	-5.746558e-05	2.226866e-01	2.226866e-01
2.035000000004394e-07	-6.274953e-01	-2.719440e-03	-5.746696e-05	2.226866e-01	2.226866e-01
2.045000000004416e-07	-6.266339e-01	-2.714944e-03	-5.746832e-05	2.226866e-01	2.226866e-01
2.055000000004438e-07	-6.257724e-01	-2.710447e-03	-5.746965e-05	2.226866e-01	2.226866e-01
2.065000000004460e-07	-6.249107e-01	-2.705950e-03	-5.747096e-05	2.226866e-01	2.226866e-01
2.075000000004482e-07	-6.240488e-01	-2.701452e-03	-5.747225e-05	2.226866e-01	2.226866e-01
2.085000000004504e-07	-6.231868e-01	-2.696955e-03	-5.747352e-05	2.226866e-01	2.226866e-01
2.095000000004526e-07	-6.223246e-01	-2.692457e-03	-5.747476e-05	2.226866e-01	2.226866e-01
2.105000000004548e-07	-6.214624e-01	-2.687958e-03	-5.747598e-05	2.226866e-01	2.226866e-01
2.115000000004570e-07	-6.206000e-01	-2.683459e-03	-5.747718e-05	2.226866e-01	2.226866e-01
2.125000000004592e-07	-6.197374e-01	-2.678960e-03	-5.747836e-05	2.226866e-01	2.226866e-01
2.135000000004614e-07	-6.188748e-01	-2.674460e-03	-5.747951e-05	2.226866e-01	2.226866e-01
2.145000000004636e-07	-6.180120e-01	-2.669960e-03	-5.748064e-05	2.226866e-01	2.226866e-01
2.155000000004658e-07	-6.171490e-01	-2.665460e-03	-5.748175e-05	2.226866e-01	2.226866e-01
2.165000000004679e-07	-6.162859e-01	-2.660959e-03	-5.748284e-05	2.226866e-01	2.226866e-01
2.175000000004701e-07	-6.154226e-01	-2.656458e-03	-5.748390e-05	2.226866e-01	2.226866e-01
