time	V(v_y)	V(v_out)	V(v_x)	V(v_90)	V(v_0)
0.000000000000000e+00	-6.070793e-01	-1.052183e-02	-5.680915e-04	2.226866e-01	2.226866e-01
9.999999999344301e-11	-6.069916e-01	-1.051738e-02	-5.680924e-04	2.226866e-01	2.226866e-01
2.999999999938815e-10	-6.068162e-01	-1.050848e-02	-5.680942e-04	2.226866e-01	2.226866e-01
6.999999999947586e-10	-6.064653e-01	-1.049069e-02	-5.680978e-04	2.226866e-01	2.226866e-01
1.499999999996513e-09	-6.057634e-01	-1.045510e-02	-5.681049e-04	2.226866e-01	2.226866e-01
2.499999999998706e-09	-6.048860e-01	-1.041060e-02	-5.681136e-04	2.226866e-01	2.226866e-01
3.500000000000898e-09	-6.040084e-01	-1.036611e-02	-5.681221e-04	2.226866e-01	2.226866e-01
4.500000000003091e-09	-6.031307e-01	-1.032161e-02	-5.681303e-04	2.226866e-01	2.226866e-01
5.500000000005284e-09	-6.022528e-01	-1.027710e-02	-5.681384e-04	2.226866e-01	2.226866e-01
6.500000000007476e-09	-6.013749e-01	-1.023259e-02	-5.681461e-04	2.226866e-01	2.226866e-01
7.500000000009669e-09	-6.004968e-01	-1.018808e-02	-5.681537e-04	2.226866e-01	2.226866e-01
8.500000000011862e-09	-5.996185e-01	-1.014357e-02	-5.681610e-04	2.226866e-01	2.226866e-01
9.500000000014054e-09	-5.987401e-01	-1.009905e-02	-5.681681e-04	2.226866e-01	2.226866e-01
1.050000000001625e-08	-5.978616e-01	-1.005453e-02	-5.681750e-04	2.226866e-01	2.226866e-01
1.150000000001844e-08	-5.969830e-01	-1.001001e-02	-5.681816e-04	2.226866e-01	2.226866e-01
1.250000000002063e-08	-5.961042e-01	-9.965482e-03	-5.681881e-04	2.226866e-01	2.226866e-01
1.350000000002283e-08	-5.952253e-01	-9.920952e-03	-5.681943e-04	2.226866e-01	2.226866e-01
1.450000000002502e-08	-5.943462e-01	-9.876419e-03	-5.682002e-04	2.226866e-01	2.226866e-01
1.550000000002721e-08	-5.934671e-01	-9.831882e-03	-5.682060e-04	2.226866e-01	2.226866e-01
1.650000000002940e-08	-5.925877e-01	-9.787343e-03	-5.682114e-04	2.226866e-01	2.226866e-01
1.750000000003160e-08	-5.917083e-01	-9.742800e-03	-5.682167e-04	2.226866e-01	2.226866e-01
1.850000000003379e-08	-5.908287e-01	-9.698254e-03	-5.682218e-04	2.226866e-01	2.226866e-01
1.950000000003598e-08	-5.899490e-01	-9.653705e-03	-5.682266e-04	2.226866e-01	2.226866e-01
2.050000000003817e-08	-5.890692e-01	-9.609153e-03	-5.682312e-04	2.226866e-01	2.226866e-01
2.150000000004037e-08	-5.881892e-01	-9.564597e-03	-5.682356e-04	2.226866e-01	2.226866e-01
2.250000000004256e-08	-5.873091e-01	-9.520039e-03	-5.682397e-04	2.226866e-01	2.226866e-01
2.350000000004475e-08	-5.864289e-01	-9.475478e-03	-5.682436e-04	2.226866e-01	2.226866e-01
2.450000000004695e-08	-5.855486e-01	-9.430913e-03	-5.682473e-04	2.226866e-01	2.226866e-01
2.550000000004914e-08	-5.846681e-01	-9.386346e-03	-5.682507e-04	2.226866e-01	2.226866e-01
2.650000000005133e-08	-5.837875e-01	-9.341775e-03	-5.682540e-04	2.226866e-01	2.226866e-01
2.750000000005352e-08	-5.829068e-01	-9.297202e-03	-5.682569e-04	2.226866e-01	2.226866e-01
2.850000000005572e-08	-5.820259e-01	-9.252626e-03	-5.682597e-04	2.226866e-01	2.226866e-01
2.950000000005791e-08	-5.811449e-01	-9.208046e-03	-5.682623e-04	2.226866e-01	2.226866e-01
3.050000000006010e-08	-5.802638e-01	-9.163464e-03	-5.682646e-04	2.226866e-01	2.226866e-01
3.150000000006229e-08	-5.793826e-01	-9.118879e-03	-5.682667e-04	2.226866e-01	2.226866e-01
3.250000000006449e-08	-5.785012e-01	-9.074291e-03	-5.682685e-04	2.226866e-01	2.226866e-01
3.350000000006668e-08	-5.776197e-01	-9.029699e-03	-5.682702e-04	2.226866e-01	2.226866e-01
3.450000000006887e-08	-5.767381e-01	-8.985106e-03	-5.682716e-04	2.226866e-01	2.226866e-01
3.550000000007106e-08	-5.758564e-01	-8.940510e-03	-5.682728e-04	2.226866e-01	2.226866e-01
3.650000000007326e-08	-5.749745e-01	-8.895910e-03	-5.682737e-04	2.226866e-01	2.226866e-01
3.750000000007545e-08	-5.740926e-01	-8.851308e-03	-5.682744e-04	2.226866e-01	2.226866e-01
3.850000000007764e-08	-5.732105e-01	-8.806703e-03	-5.682749e-04	2.226866e-01	2.226866e-01
3.950000000007984e-08	-5.723282e-01	-8.762095e-03	-5.682752e-04	2.226866e-01	2.226866e-01
4.050000000008203e-08	-5.714459e-01	-8.717485e-03	-5.682752e-04	2.226866e-01	2.226866e-01
4.150000000008422e-08	-5.705634e-01	-8.672872e-03	-5.682750e-04	2.226866e-01	2.226866e-01
4.250000000008641e-08	-5.696808e-01	-8.628256e-03	-5.682746e-04	2.226866e-01	2.226866e-01
4.350000000008861e-08	-5.687981e-01	-8.583637e-03	-5.682740e-04	2.226866e-01	2.226866e-01
4.450000000009080e-08	-5.679153e-01	-8.539016e-03	-5.682731e-04	2.226866e-01	2.226866e-01
4.550000000009299e-08	-5.670323e-01	-8.494392e-03	-5.682720e-04	2.226866e-01	2.226866e-01
4.650000000009518e-08	-5.661493e-01	-8.449766e-03	-5.682707e-04	2.226866e-01	2.226866e-01
4.750000000009738e-08	-5.652661e-01	-8.405136e-03	-5.682692e-04	2.226866e-01	2.226866e-01
4.850000000009957e-08	-5.643828e-01	-8.360504e-03	-5.682674e-04	2.226866e-01	2.226866e-01
4.950000000010176e-08	-5.634993e-01	-8.315871e-03	-5.682654e-04	2.226866e-01	2.226866e-01
5.050000000010396e-08	-5.626158e-01	-8.271233e-03	-5.682632e-04	2.226866e-01	2.226866e-01
5.150000000010615e-08	-5.617321e-01	-8.226594e-03	-5.682607e-04	2.226866e-01	2.226866e-01
5.250000000010834e-08	-5.608484e-01	-8.181952e-03	-5.682580e-04	2.226866e-01	2.226866e-01
5.350000000011053e-08	-5.599645e-01	-8.137308e-03	-5.682551e-04	2.226866e-01	2.226866e-01
5.450000000011273e-08	-5.590804e-01	-8.092660e-03	-5.682519e-04	2.226866e-01	2.226866e-01
5.550000000011492e-08	-5.581963e-01	-8.048011e-03	-5.682486e-04	2.226866e-01	2.226866e-01
5.650000000011711e-08	-5.573121e-01	-8.003360e-03	-5.682450e-04	2.226866e-01	2.226866e-01
5.750000000011930e-08	-5.564277e-01	-7.958706e-03	-5.682412e-04	2.226866e-01	2.226866e-01
5.850000000012150e-08	-5.555432e-01	-7.914049e-03	-5.682372e-04	2.226866e-01	2.226866e-01
5.950000000012369e-08	-5.546587e-01	-7.869389e-03	-5.682328e-04	2.226866e-01	2.226866e-01
6.050000000012588e-08	-5.537739e-01	-7.824728e-03	-5.682284e-04	2.226866e-01	2.226866e-01
6.150000000012808e-08	-5.528891e-01	-7.780064e-03	-5.682237e-04	2.226866e-01	2.226866e-01
6.250000000013027e-08	-5.520042e-01	-7.735398e-03	-5.682187e-04	2.226866e-01	2.226866e-01
6.350000000013246e-08	-5.511191e-01	-7.690730e-03	-5.682135e-04	2.226866e-01	2.226866e-01
6.450000000013465e-08	-5.502340e-01	-7.646059e-03	-5.682081e-04	2.226866e-01	2.226866e-01
6.550000000013685e-08	-5.493487e-01	-7.601385e-03	-5.682025e-04	2.226866e-01	2.226866e-01
6.650000000013904e-08	-5.484633e-01	-7.556710e-03	-5.681966e-04	2.226866e-01	2.226866e-01
6.750000000014123e-08	-5.475778e-01	-7.512033e-03	-5.681905e-04	2.226866e-01	2.226866e-01
6.850000000014342e-08	-5.466922e-01	-7.467353e-03	-5.681842e-04	2.226866e-01	2.226866e-01
6.950000000014562e-08	-5.458065e-01	-7.422671e-03	-5.681777e-04	2.226866e-01	2.226866e-01
7.050000000014781e-08	-5.449207e-01	-7.377986e-03	-5.681709e-04	2.226866e-01	2.226866e-01
7.150000000015000e-08	-5.440347e-01	-7.333300e-03	-5.681639e-04	2.226866e-01	2.226866e-01
7.250000000015220e-08	-5.431487e-01	-7.288611e-03	-5.681567e-04	2.226866e-01	2.226866e-01
7.350000000015439e-08	-5.422625e-01	-7.243921e-03	-5.681493e-04	2.226866e-01	2.226866e-01
7.450000000015658e-08	-5.413762e-01	-7.199228e-03	-5.681416e-04	2.226866e-01	2.226866e-01
7.550000000015877e-08	-5.404899e-01	-7.154533e-03	-5.681337e-04	2.226866e-01	2.226866e-01
7.650000000016097e-08	-5.396034e-01	-7.109836e-03	-5.681256e-04	2.226866e-01	2.226866e-01
7.750000000016316e-08	-5.387168e-01	-7.065137e-03	-5.681172e-04	2.226866e-01	2.226866e-01
7.850000000016535e-08	-5.378301e-01	-7.020436e-03	-5.681086e-04	2.226866e-01	2.226866e-01
7.950000000016754e-08	-5.369433e-01	-6.975732e-03	-5.680998e-04	2.226866e-01	2.226866e-01
8.050000000016974e-08	-5.360564e-01	-6.931027e-03	-5.680908e-04	2.226866e-01	2.226866e-01
8.150000000017193e-08	-5.351694e-01	-6.886320e-03	-5.680816e-04	2.226866e-01	2.226866e-01
8.250000000017412e-08	-5.342822e-01	-6.841611e-03	-5.680721e-04	2.226866e-01	2.226866e-01
8.350000000017632e-08	-5.333950e-01	-6.796900e-03	-5.680624e-04	2.226866e-01	2.226866e-01
8.450000000017851e-08	-5.325077e-01	-6.752186e-03	-5.680524e-04	2.226866e-01	2.226866e-01
8.550000000018070e-08	-5.316202e-01	-6.707471e-03	-5.680423e-04	2.226866e-01	2.226866e-01
8.650000000018289e-08	-5.307327e-01	-6.662754e-03	-5.680319e-04	2.226866e-01	2.226866e-01
8.750000000018509e-08	-5.298451e-01	-6.618036e-03	-5.680213e-04	2.226866e-01	2.226866e-01
8.850000000018728e-08	-5.289572e-01	-6.573315e-03	-5.680104e-04	2.226866e-01	2.226866e-01
8.950000000018947e-08	-5.280694e-01	-6.528593e-03	-5.679994e-04	2.226866e-01	2.226866e-01
9.050000000019166e-08	-5.271814e-01	-6.483868e-03	-5.679881e-04	2.226866e-01	2.226866e-01
9.150000000019386e-08	-5.262934e-01	-6.439142e-03	-5.679766e-04	2.226866e-01	2.226866e-01
9.250000000019605e-08	-5.254052e-01	-6.394414e-03	-5.679649e-04	2.226866e-01	2.226866e-01
9.350000000019824e-08	-5.245169e-01	-6.349684e-03	-5.679529e-04	2.226866e-01	2.226866e-01
9.450000000020043e-08	-5.236286e-01	-6.304953e-03	-5.679407e-04	2.226866e-01	2.226866e-01
9.550000000020263e-08	-5.227401e-01	-6.260219e-03	-5.679282e-04	2.226866e-01	2.226866e-01
9.650000000020482e-08	-5.218515e-01	-6.215484e-03	-5.679156e-04	2.226866e-01	2.226866e-01
9.750000000020701e-08	-5.209629e-01	-6.170748e-03	-5.679028e-04	2.226866e-01	2.226866e-01
9.850000000020921e-08	-5.200741e-01	-6.126009e-03	-5.678897e-04	2.226866e-01	2.226866e-01
9.950000000021140e-08	-5.191852e-01	-6.081270e-03	-5.678763e-04	2.226866e-01	2.226866e-01
1.005000000002136e-07	-5.182962e-01	-6.036528e-03	-5.678628e-04	2.226866e-01	2.226866e-01
1.015000000002158e-07	-5.174072e-01	-5.991784e-03	-5.678490e-04	2.226866e-01	2.226866e-01
1.025000000002180e-07	-5.165181e-01	-5.947039e-03	-5.678351e-04	2.226866e-01	2.226866e-01
1.035000000002202e-07	-5.156288e-01	-5.902293e-03	-5.678208e-04	2.226866e-01	2.226866e-01
1.045000000002224e-07	-5.147394e-01	-5.857545e-03	-5.678064e-04	2.226866e-01	2.226866e-01
1.055000000002246e-07	-5.138499e-01	-5.812795e-03	-5.677917e-04	2.226866e-01	2.226866e-01
1.065000000002267e-07	-5.129604e-01	-5.768044e-03	-5.677768e-04	2.226866e-01	2.226866e-01
1.075000000002289e-07	-5.120707e-01	-5.723291e-03	-5.677617e-04	2.226866e-01	2.226866e-01
1.085000000002311e-07	-5.111810e-01	-5.678537e-03	-5.677463e-04	2.226866e-01	2.226866e-01
1.095000000002333e-07	-5.102912e-01	-5.633781e-03	-5.677307e-04	2.226866e-01	2.226866e-01
1.105000000002355e-07	-5.094012e-01	-5.589024e-03	-5.677150e-04	2.226866e-01	2.226866e-01
1.115000000002377e-07	-5.085111e-01	-5.544265e-03	-5.676990e-04	2.226866e-01	2.226866e-01
1.125000000002399e-07	-5.076210e-01	-5.499505e-03	-5.676827e-04	2.226866e-01	2.226866e-01
1.135000000002421e-07	-5.067308e-01	-5.454743e-03	-5.676663e-04	2.226866e-01	2.226866e-01
1.145000000002443e-07	-5.058405e-01	-5.409981e-03	-5.676495e-04	2.226866e-01	2.226866e-01
1.155000000002465e-07	-5.049500e-01	-5.365216e-03	-5.676326e-04	2.226866e-01	2.226866e-01
1.165000000002487e-07	-5.040596e-01	-5.320450e-03	-5.676154e-04	2.226866e-01	2.226866e-01
1.175000000002509e-07	-5.031689e-01	-5.275683e-03	-5.675981e-04	2.226866e-01	2.226866e-01
1.185000000002531e-07	-5.022783e-01	-5.230915e-03	-5.675805e-04	2.226866e-01	2.226866e-01
1.195000000002553e-07	-5.013875e-01	-5.186146e-03	-5.675626e-04	2.226866e-01	2.226866e-01
1.205000000002574e-07	-5.004966e-01	-5.141375e-03	-5.675446e-04	2.226866e-01	2.226866e-01
1.215000000002596e-07	-4.996056e-01	-5.096602e-03	-5.675264e-04	2.226866e-01	2.226866e-01
1.225000000002618e-07	-4.987146e-01	-5.051829e-03	-5.675079e-04	2.226866e-01	2.226866e-01
1.235000000002640e-07	-4.978234e-01	-5.007054e-03	-5.674891e-04	2.226866e-01	2.226866e-01
1.245000000002662e-07	-4.969322e-01	-4.962278e-03	-5.674702e-04	2.226866e-01	2.226866e-01
1.255000000002684e-07	-4.960408e-01	-4.917501e-03	-5.674510e-04	2.226866e-01	2.226866e-01
1.265000000002706e-07	-4.951494e-01	-4.872723e-03	-5.674316e-04	2.226866e-01	2.226866e-01
1.275000000002728e-07	-4.942579e-01	-4.827943e-03	-5.674120e-04	2.226866e-01	2.226866e-01
1.285000000002750e-07	-4.933663e-01	-4.783162e-03	-5.673922e-04	2.226866e-01	2.226866e-01
1.295000000002772e-07	-4.924746e-01	-4.738381e-03	-5.673721e-04	2.226866e-01	2.226866e-01
1.305000000002794e-07	-4.915828e-01	-4.693598e-03	-5.673518e-04	2.226866e-01	2.226866e-01
1.315000000002816e-07	-4.906910e-01	-4.648814e-03	-5.673313e-04	2.226866e-01	2.226866e-01
1.325000000002838e-07	-4.897990e-01	-4.604029e-03	-5.673105e-04	2.226866e-01	2.226866e-01
1.335000000002860e-07	-4.889070e-01	-4.559243e-03	-5.672896e-04	2.226866e-01	2.226866e-01
1.345000000002881e-07	-4.880148e-01	-4.514456e-03	-5.672684e-04	2.226866e-01	2.226866e-01
1.355000000002903e-07	-4.871226e-01	-4.469668e-03	-5.672470e-04	2.226866e-01	2.226866e-01
1.365000000002925e-07	-4.862303e-01	-4.424878e-03	-5.672253e-04	2.226866e-01	2.226866e-01
1.375000000002947e-07	-4.853379e-01	-4.380088e-03	-5.672034e-04	2.226866e-01	2.226866e-01
1.385000000002969e-07	-4.844455e-01	-4.335297e-03	-5.671814e-04	2.226866e-01	2.226866e-01
1.395000000002991e-07	-4.835529e-01	-4.290505e-03	-5.671591e-04	2.226866e-01	2.226866e-01
1.405000000003013e-07	-4.826603e-01	-4.245712e-03	-5.671365e-04	2.226866e-01	2.226866e-01
1.415000000003035e-07	-4.817676e-01	-4.200918e-03	-5.671137e-04	2.226866e-01	2.226866e-01
1.425000000003057e-07	-4.808747e-01	-4.156123e-03	-5.670908e-04	2.226866e-01	2.226866e-01
1.435000000003079e-07	-4.799819e-01	-4.111328e-03	-5.670676e-04	2.226866e-01	2.226866e-01
1.445000000003101e-07	-4.790889e-01	-4.066531e-03	-5.670441e-04	2.226866e-01	2.226866e-01
1.455000000003123e-07	-4.781958e-01	-4.021734e-03	-5.670205e-04	2.226866e-01	2.226866e-01
1.465000000003145e-07	-4.773027e-01	-3.976936e-03	-5.669966e-04	2.226866e-01	2.226866e-01
1.475000000003166e-07	-4.764095e-01	-3.932137e-03	-5.669725e-04	2.226866e-01	2.226866e-01
1.485000000003188e-07	-4.755162e-01	-3.887337e-03	-5.669482e-04	2.226866e-01	2.226866e-01
1.495000000003210e-07	-4.746228e-01	-3.842537e-03	-5.669236e-04	2.226866e-01	2.226866e-01
1.505000000003232e-07	-4.737293e-01	-3.797735e-03	-5.668988e-04	2.226866e-01	2.226866e-01
1.515000000003254e-07	-4.728358e-01	-3.752933e-03	-5.668739e-04	2.226866e-01	2.226866e-01
1.525000000003276e-07	-4.719421e-01	-3.708130e-03	-5.668487e-04	2.226866e-01	2.226866e-01
1.535000000003298e-07	-4.710484e-01	-3.663327e-03	-5.668232e-04	2.226866e-01	2.226866e-01
1.545000000003320e-07	-4.701546e-01	-3.618523e-03	-5.667975e-04	2.226866e-01	2.226866e-01
1.555000000003342e-07	-4.692608e-01	-3.573718e-03	-5.667717e-04	2.226866e-01	2.226866e-01
1.565000000003364e-07	-4.683668e-01	-3.528913e-03	-5.667455e-04	2.226866e-01	2.226866e-01
1.575000000003386e-07	-4.674728e-01	-3.484107e-03	-5.667192e-04	2.226866e-01	2.226866e-01
1.585000000003408e-07	-4.665787e-01	-3.439300e-03	-5.666926e-04	2.226866e-01	2.226866e-01
1.595000000003430e-07	-4.656845e-01	-3.394493e-03	-5.666658e-04	2.226866e-01	2.226866e-01
1.605000000003452e-07	-4.647903e-01	-3.349685e-03	-5.666388e-04	2.226866e-01	2.226866e-01
1.615000000003473e-07	-4.638959e-01	-3.304877e-03	-5.666116e-04	2.226866e-01	2.226866e-01
1.625000000003495e-07	-4.630015e-01	-3.260068e-03	-5.665841e-04	2.226866e-01	2.226866e-01
1.635000000003517e-07	-4.621070e-01	-3.215258e-03	-5.665565e-04	2.226866e-01	2.226866e-01
1.645000000003539e-07	-4.612125e-01	-3.170449e-03	-5.665285e-04	2.226866e-01	2.226866e-01
1.655000000003561e-07	-4.603179e-01	-3.125638e-03	-5.665004e-04	2.226866e-01	2.226866e-01
1.665000000003583e-07	-4.594231e-01	-3.080827e-03	-5.664721e-04	2.226866e-01	2.226866e-01
1.675000000003605e-07	-4.585283e-01	-3.036016e-03	-5.664435e-04	2.226866e-01	2.226866e-01
1.685000000003627e-07	-4.576335e-01	-2.991204e-03	-5.664147e-04	2.226866e-01	2.226866e-01
1.695000000003649e-07	-4.567385e-01	-2.946392e-03	-5.663857e-04	2.226866e-01	2.226866e-01
1.705000000003671e-07	-4.558435e-01	-2.901580e-03	-5.663565e-04	2.226866e-01	2.226866e-01
1.715000000003693e-07	-4.549485e-01	-2.856767e-03	-5.663270e-04	2.226866e-01	2.226866e-01
1.725000000003715e-07	-4.540533e-01	-2.811954e-03	-5.662973e-04	2.226866e-01	2.226866e-01
1.735000000003737e-07	-4.531581e-01	-2.767140e-03	-5.662674e-04	2.226866e-01	2.226866e-01
1.745000000003759e-07	-4.522628e-01	-2.722326e-03	-5.662373e-04	2.226866e-01	2.226866e-01
1.755000000003780e-07	-4.513674e-01	-2.677512e-03	-5.662069e-04	2.226866e-01	2.226866e-01
1.765000000003802e-07	-4.504719e-01	-2.632698e-03	-5.661763e-04	2.226866e-01	2.226866e-01
1.775000000003824e-07	-4.495764e-01	-2.587883e-03	-5.661455e-04	2.226866e-01	2.226866e-01
1.785000000003846e-07	-4.486808e-01	-2.543068e-03	-5.661145e-04	2.226866e-01	2.226866e-01
1.795000000003868e-07	-4.477852e-01	-2.498253e-03	-5.660832e-04	2.226866e-01	2.226866e-01
1.805000000003890e-07	-4.468894e-01	-2.453437e-03	-5.660517e-04	2.226866e-01	2.226866e-01
1.815000000003912e-07	-4.459936e-01	-2.408622e-03	-5.660201e-04	2.226866e-01	2.226866e-01
1.825000000003934e-07	-4.450977e-01	-2.363806e-03	-5.659882e-04	2.226866e-01	2.226866e-01
1.835000000003956e-07	-4.442018e-01	-2.318990e-03	-5.659561e-04	2.226866e-01	2.226866e-01
1.845000000003978e-07	-4.433058e-01	-2.274174e-03	-5.659237e-04	2.226866e-01	2.226866e-01
1.855000000004000e-07	-4.424097e-01	-2.229358e-03	-5.658911e-04	2.226866e-01	2.226866e-01
1.865000000004022e-07	-4.415136e-01	-2.184541e-03	-5.658583e-04	2.226866e-01	2.226866e-01
1.875000000004044e-07	-4.406174e-01	-2.139725e-03	-5.658253e-04	2.226866e-01	2.226866e-01
1.885000000004065e-07	-4.397211e-01	-2.094908e-03	-5.657920e-04	2.226866e-01	2.226866e-01
1.895000000004087e-07	-4.388247e-01	-2.050092e-03	-5.657586e-04	2.226866e-01	2.226866e-01
1.905000000004109e-07	-4.379283e-01	-2.005275e-03	-5.657249e-04	2.226866e-01	2.226866e-01
1.915000000004131e-07	-4.370318e-01	-1.960459e-03	-5.656909e-04	2.226866e-01	2.226866e-01
1.925000000004153e-07	-4.361353e-01	-1.915642e-03	-5.656568e-04	2.226866e-01	2.226866e-01
1.935000000004175e-07	-4.352387e-01	-1.870826e-03	-5.656224e-04	2.226866e-01	2.226866e-01
1.945000000004197e-07	-4.343420e-01	-1.826009e-03	-5.655878e-04	2.226866e-01	2.226866e-01
1.955000000004219e-07	-4.334452e-01	-1.781193e-03	-5.655530e-04	2.226866e-01	2.226866e-01
1.965000000004241e-07	-4.325484e-01	-1.736377e-03	-5.655180e-04	2.226866e-01	2.226866e-01
1.975000000004263e-07	-4.316516e-01	-1.691560e-03	-5.654828e-04	2.226866e-01	2.226866e-01
1.985000000004285e-07	-4.307546e-01	-1.646744e-03	-5.654473e-04	2.226866e-01	2.226866e-01
1.995000000004307e-07	-4.298576e-01	-1.601928e-03	-5.654116e-04	2.226866e-01	2.226866e-01
2.005000000004329e-07	-4.289606e-01	-1.557112e-03	-5.653757e-04	2.226866e-01	2.226866e-01
2.015000000004351e-07	-4.280634e-01	-1.512297e-03	-5.653396e-04	2.226866e-01	2.226866e-01
2.025000000004372e-07	-4.271663e-01	-1.467481e-03	-5.653032e-04	2.226866e-01	2.226866e-01
2.035000000004394e-07	-4.262690e-01	-1.422666e-03	-5.652666e-04	2.226866e-01	2.226866e-01
2.045000000004416e-07	-4.253717e-01	-1.377851e-03	-5.652299e-04	2.226866e-01	2.226866e-01
2.055000000004438e-07	-4.244743e-01	-1.333036e-03	-5.651928e-04	2.226866e-01	2.226866e-01
2.065000000004460e-07	-4.235769e-01	-1.288221e-03	-5.651556e-04	2.226866e-01	2.226866e-01
2.075000000004482e-07	-4.226794e-01	-1.243407e-03	-5.651181e-04	2.226866e-01	2.226866e-01
2.085000000004504e-07	-4.217818e-01	-1.198593e-03	-5.650804e-04	2.226866e-01	2.226866e-01
2.095000000004526e-07	-4.208842e-01	-1.153779e-03	-5.650425e-04	2.226866e-01	2.226866e-01
2.105000000004548e-07	-4.199865e-01	-1.108966e-03	-5.650044e-04	2.226866e-01	2.226866e-01
2.115000000004570e-07	-4.190888e-01	-1.064153e-03	-5.649661e-04	2.226866e-01	2.226866e-01
2.125000000004592e-07	-4.181910e-01	-1.019340e-03	-5.649275e-04	2.226866e-01	2.226866e-01
2.135000000004614e-07	-4.172931e-01	-9.745278e-04	-5.648886e-04	2.226866e-01	2.226866e-01
2.145000000004636e-07	-4.163952e-01	-9.297159e-04	-5.648496e-04	2.226866e-01	2.226866e-01
2.155000000004658e-07	-4.154972e-01	-8.849044e-04	-5.648104e-04	2.226866e-01	2.226866e-01
2.165000000004679e-07	-4.145992e-01	-8.400934e-04	-5.647709e-04	2.226866e-01	2.226866e-01
2.175000000004701e-07	-4.137011e-01	-7.952828e-04	-5.647313e-04	2.226866e-01	2.226866e-01
