time	V(v_y)	V(v_out)	V(v_x)	V(v_90)	V(v_0)
0.000000000000000e+00	-7.187237e-01	-3.714617e-02	-2.641827e-04	2.226866e-01	2.226866e-01
8.677026818956247e-11	-7.186495e-01	-3.714431e-02	-2.641983e-04	2.226866e-01	2.226866e-01
2.603108045686874e-10	-7.185012e-01	-3.714058e-02	-2.642294e-04	2.226866e-01	2.226866e-01
6.073918773269373e-10	-7.182047e-01	-3.713311e-02	-2.642916e-04	2.226866e-01	2.226866e-01
1.301554022843437e-09	-7.176114e-01	-3.711818e-02	-2.644159e-04	2.226866e-01	2.226866e-01
2.301554022845630e-09	-7.167567e-01	-3.709665e-02	-2.645949e-04	2.226866e-01	2.226866e-01
3.301554022847823e-09	-7.159017e-01	-3.707511e-02	-2.647737e-04	2.226866e-01	2.226866e-01
4.301554022850015e-09	-7.150466e-01	-3.705355e-02	-2.649525e-04	2.226866e-01	2.226866e-01
5.301554022852208e-09	-7.141914e-01	-3.703198e-02	-2.651312e-04	2.226866e-01	2.226866e-01
6.301554022854401e-09	-7.133359e-01	-3.701040e-02	-2.653097e-04	2.226866e-01	2.226866e-01
7.301554022856593e-09	-7.124802e-01	-3.698880e-02	-2.654881e-04	2.226866e-01	2.226866e-01
8.301554022858786e-09	-7.116244e-01	-3.696718e-02	-2.656665e-04	2.226866e-01	2.226866e-01
9.301554022860979e-09	-7.107683e-01	-3.694556e-02	-2.658447e-04	2.226866e-01	2.226866e-01
1.030155402286317e-08	-7.099121e-01	-3.692391e-02	-2.660227e-04	2.226866e-01	2.226866e-01
1.130155402286536e-08	-7.090557e-01	-3.690225e-02	-2.662007e-04	2.226866e-01	2.226866e-01
1.230155402286756e-08	-7.081991e-01	-3.688058e-02	-2.663786e-04	2.226866e-01	2.226866e-01
1.330155402286975e-08	-7.073424e-01	-3.685889e-02	-2.665564e-04	2.226866e-01	2.226866e-01
1.430155402287194e-08	-7.064855e-01	-3.683719e-02	-2.667340e-04	2.226866e-01	2.226866e-01
1.530155402287414e-08	-7.056283e-01	-3.681548e-02	-2.669116e-04	2.226866e-01	2.226866e-01
1.630155402287633e-08	-7.047710e-01	-3.679375e-02	-2.670890e-04	2.226866e-01	2.226866e-01
1.730155402287852e-08	-7.039136e-01	-3.677200e-02	-2.672664e-04	2.226866e-01	2.226866e-01
1.830155402288071e-08	-7.030559e-01	-3.675024e-02	-2.674435e-04	2.226866e-01	2.226866e-01
1.930155402288291e-08	-7.021981e-01	-3.672846e-02	-2.676206e-04	2.226866e-01	2.226866e-01
2.030155402288510e-08	-7.013401e-01	-3.670668e-02	-2.677976e-04	2.226866e-01	2.226866e-01
2.130155402288729e-08	-7.004819e-01	-3.668487e-02	-2.679745e-04	2.226866e-01	2.226866e-01
2.230155402288948e-08	-6.996235e-01	-3.666306e-02	-2.681513e-04	2.226866e-01	2.226866e-01
2.330155402289168e-08	-6.987650e-01	-3.664123e-02	-2.683279e-04	2.226866e-01	2.226866e-01
2.430155402289387e-08	-6.979063e-01	-3.661938e-02	-2.685045e-04	2.226866e-01	2.226866e-01
2.530155402289606e-08	-6.970474e-01	-3.659752e-02	-2.686809e-04	2.226866e-01	2.226866e-01
2.630155402289825e-08	-6.961883e-01	-3.657564e-02	-2.688572e-04	2.226866e-01	2.226866e-01
2.730155402290045e-08	-6.953291e-01	-3.655375e-02	-2.690334e-04	2.226866e-01	2.226866e-01
2.830155402290264e-08	-6.944696e-01	-3.653185e-02	-2.692095e-04	2.226866e-01	2.226866e-01
2.930155402290483e-08	-6.936101e-01	-3.650993e-02	-2.693855e-04	2.226866e-01	2.226866e-01
3.030155402290703e-08	-6.927503e-01	-3.648800e-02	-2.695613e-04	2.226866e-01	2.226866e-01
3.130155402290922e-08	-6.918904e-01	-3.646605e-02	-2.697371e-04	2.226866e-01	2.226866e-01
3.230155402291141e-08	-6.910302e-01	-3.644409e-02	-2.699127e-04	2.226866e-01	2.226866e-01
3.330155402291360e-08	-6.901699e-01	-3.642211e-02	-2.700883e-04	2.226866e-01	2.226866e-01
3.430155402291580e-08	-6.893095e-01	-3.640012e-02	-2.702637e-04	2.226866e-01	2.226866e-01
3.530155402291799e-08	-6.884488e-01	-3.637812e-02	-2.704390e-04	2.226866e-01	2.226866e-01
3.630155402292018e-08	-6.875880e-01	-3.635610e-02	-2.706141e-04	2.226866e-01	2.226866e-01
3.730155402292237e-08	-6.867270e-01	-3.633407e-02	-2.707892e-04	2.226866e-01	2.226866e-01
3.830155402292457e-08	-6.858659e-01	-3.631202e-02	-2.709642e-04	2.226866e-01	2.226866e-01
3.930155402292676e-08	-6.850046e-01	-3.628996e-02	-2.711390e-04	2.226866e-01	2.226866e-01
4.030155402292895e-08	-6.841431e-01	-3.626788e-02	-2.713138e-04	2.226866e-01	2.226866e-01
4.130155402293115e-08	-6.832815e-01	-3.624579e-02	-2.714884e-04	2.226866e-01	2.226866e-01
4.230155402293334e-08	-6.824197e-01	-3.622369e-02	-2.716629e-04	2.226866e-01	2.226866e-01
4.330155402293553e-08	-6.815577e-01	-3.620157e-02	-2.718373e-04	2.226866e-01	2.226866e-01
4.430155402293772e-08	-6.806955e-01	-3.617943e-02	-2.720116e-04	2.226866e-01	2.226866e-01
4.530155402293992e-08	-6.798332e-01	-3.615729e-02	-2.721857e-04	2.226866e-01	2.226866e-01
4.630155402294211e-08	-6.789706e-01	-3.613513e-02	-2.723598e-04	2.226866e-01	2.226866e-01
4.730155402294430e-08	-6.781080e-01	-3.611295e-02	-2.725337e-04	2.226866e-01	2.226866e-01
4.830155402294649e-08	-6.772451e-01	-3.609076e-02	-2.727076e-04	2.226866e-01	2.226866e-01
4.930155402294869e-08	-6.763821e-01	-3.606856e-02	-2.728813e-04	2.226866e-01	2.226866e-01
5.030155402295088e-08	-6.755190e-01	-3.604634e-02	-2.730549e-04	2.226866e-01	2.226866e-01
5.130155402295307e-08	-6.746557e-01	-3.602411e-02	-2.732284e-04	2.226866e-01	2.226866e-01
5.230155402295527e-08	-6.737922e-01	-3.600186e-02	-2.734018e-04	2.226866e-01	2.226866e-01
5.330155402295746e-08	-6.729285e-01	-3.597960e-02	-2.735750e-04	2.226866e-01	2.226866e-01
5.430155402295965e-08	-6.720647e-01	-3.595733e-02	-2.737482e-04	2.226866e-01	2.226866e-01
5.530155402296184e-08	-6.712007e-01	-3.593504e-02	-2.739212e-04	2.226866e-01	2.226866e-01
5.630155402296404e-08	-6.703365e-01	-3.591273e-02	-2.740941e-04	2.226866e-01	2.226866e-01
5.730155402296623e-08	-6.694722e-01	-3.589042e-02	-2.742669e-04	2.226866e-01	2.226866e-01
5.830155402296842e-08	-6.686077e-01	-3.586809e-02	-2.744396e-04	2.226866e-01	2.226866e-01
5.930155402297061e-08	-6.677431e-01	-3.584574e-02	-2.746122e-04	2.226866e-01	2.226866e-01
6.030155402297281e-08	-6.668783e-01	-3.582338e-02	-2.747846e-04	2.226866e-01	2.226866e-01
6.130155402297500e-08	-6.660133e-01	-3.580100e-02	-2.749570e-04	2.226866e-01	2.226866e-01
6.230155402297719e-08	-6.651482e-01	-3.577862e-02	-2.751292e-04	2.226866e-01	2.226866e-01
6.330155402297939e-08	-6.642829e-01	-3.575622e-02	-2.753013e-04	2.226866e-01	2.226866e-01
6.430155402298158e-08	-6.634175e-01	-3.573380e-02	-2.754733e-04	2.226866e-01	2.226866e-01
6.530155402298377e-08	-6.625519e-01	-3.571137e-02	-2.756452e-04	2.226866e-01	2.226866e-01
6.630155402298596e-08	-6.616861e-01	-3.568893e-02	-2.758169e-04	2.226866e-01	2.226866e-01
6.730155402298816e-08	-6.608202e-01	-3.566647e-02	-2.759886e-04	2.226866e-01	2.226866e-01
6.830155402299035e-08	-6.599541e-01	-3.564399e-02	-2.761601e-04	2.226866e-01	2.226866e-01
6.930155402299254e-08	-6.590878e-01	-3.562151e-02	-2.763316e-04	2.226866e-01	2.226866e-01
7.030155402299473e-08	-6.582214e-01	-3.559901e-02	-2.765029e-04	2.226866e-01	2.226866e-01
7.130155402299693e-08	-6.573549e-01	-3.557650e-02	-2.766741e-04	2.226866e-01	2.226866e-01
7.230155402299912e-08	-6.564881e-01	-3.555397e-02	-2.768452e-04	2.226866e-01	2.226866e-01
7.330155402300131e-08	-6.556213e-01	-3.553143e-02	-2.770161e-04	2.226866e-01	2.226866e-01
7.430155402300351e-08	-6.547542e-01	-3.550887e-02	-2.771869e-04	2.226866e-01	2.226866e-01
7.530155402300570e-08	-6.538870e-01	-3.548630e-02	-2.773577e-04	2.226866e-01	2.226866e-01
7.630155402300789e-08	-6.530197e-01	-3.546372e-02	-2.775283e-04	2.226866e-01	2.226866e-01
7.730155402301008e-08	-6.521522e-01	-3.544112e-02	-2.776988e-04	2.226866e-01	2.226866e-01
7.830155402301228e-08	-6.512846e-01	-3.541851e-02	-2.778692e-04	2.226866e-01	2.226866e-01
7.930155402301447e-08	-6.504167e-01	-3.539588e-02	-2.780395e-04	2.226866e-01	2.226866e-01
8.030155402301666e-08	-6.495488e-01	-3.537324e-02	-2.782096e-04	2.226866e-01	2.226866e-01
8.130155402301885e-08	-6.486807e-01	-3.535059e-02	-2.783797e-04	2.226866e-01	2.226866e-01
8.230155402302105e-08	-6.478124e-01	-3.532792e-02	-2.785496e-04	2.226866e-01	2.226866e-01
8.330155402302324e-08	-6.469440e-01	-3.530524e-02	-2.787194e-04	2.226866e-01	2.226866e-01
8.430155402302543e-08	-6.460754e-01	-3.528254e-02	-2.788891e-04	2.226866e-01	2.226866e-01
8.530155402302762e-08	-6.452067e-01	-3.525984e-02	-2.790586e-04	2.226866e-01	2.226866e-01
8.630155402302982e-08	-6.443378e-01	-3.523711e-02	-2.792281e-04	2.226866e-01	2.226866e-01
8.730155402303201e-08	-6.434687e-01	-3.521438e-02	-2.793974e-04	2.226866e-01	2.226866e-01
8.830155402303420e-08	-6.425996e-01	-3.519163e-02	-2.795667e-04	2.226866e-01	2.226866e-01
8.930155402303640e-08	-6.417302e-01	-3.516886e-02	-2.797357e-04	2.226866e-01	2.226866e-01
9.030155402303859e-08	-6.408607e-01	-3.514608e-02	-2.799048e-04	2.226866e-01	2.226866e-01
9.130155402304078e-08	-6.399911e-01	-3.512329e-02	-2.800736e-04	2.226866e-01	2.226866e-01
9.230155402304297e-08	-6.391213e-01	-3.510049e-02	-2.802424e-04	2.226866e-01	2.226866e-01
9.330155402304517e-08	-6.382514e-01	-3.507767e-02	-2.804110e-04	2.226866e-01	2.226866e-01
9.430155402304736e-08	-6.373813e-01	-3.505483e-02	-2.805796e-04	2.226866e-01	2.226866e-01
9.530155402304955e-08	-6.365111e-01	-3.503199e-02	-2.807479e-04	2.226866e-01	2.226866e-01
9.630155402305174e-08	-6.356407e-01	-3.500912e-02	-2.809162e-04	2.226866e-01	2.226866e-01
9.730155402305394e-08	-6.347702e-01	-3.498625e-02	-2.810844e-04	2.226866e-01	2.226866e-01
9.830155402305613e-08	-6.338995e-01	-3.496336e-02	-2.812525e-04	2.226866e-01	2.226866e-01
9.930155402305832e-08	-6.330287e-01	-3.494046e-02	-2.814204e-04	2.226866e-01	2.226866e-01
1.003015540230605e-07	-6.321577e-01	-3.491754e-02	-2.815882e-04	2.226866e-01	2.226866e-01
1.013015540230627e-07	-6.312866e-01	-3.489462e-02	-2.817559e-04	2.226866e-01	2.226866e-01
1.023015540230649e-07	-6.304153e-01	-3.487167e-02	-2.819235e-04	2.226866e-01	2.226866e-01
1.033015540230671e-07	-6.295439e-01	-3.484872e-02	-2.820910e-04	2.226866e-01	2.226866e-01
1.043015540230693e-07	-6.286724e-01	-3.482575e-02	-2.822583e-04	2.226866e-01	2.226866e-01
1.053015540230715e-07	-6.278006e-01	-3.480276e-02	-2.824255e-04	2.226866e-01	2.226866e-01
1.063015540230737e-07	-6.269288e-01	-3.477976e-02	-2.825927e-04	2.226866e-01	2.226866e-01
1.073015540230759e-07	-6.260568e-01	-3.475675e-02	-2.827597e-04	2.226866e-01	2.226866e-01
1.083015540230781e-07	-6.251847e-01	-3.473373e-02	-2.829265e-04	2.226866e-01	2.226866e-01
1.093015540230802e-07	-6.243125e-01	-3.471069e-02	-2.830933e-04	2.226866e-01	2.226866e-01
1.103015540230824e-07	-6.234400e-01	-3.468763e-02	-2.832600e-04	2.226866e-01	2.226866e-01
1.113015540230846e-07	-6.225675e-01	-3.466457e-02	-2.834265e-04	2.226866e-01	2.226866e-01
1.123015540230868e-07	-6.216948e-01	-3.464149e-02	-2.835929e-04	2.226866e-01	2.226866e-01
1.133015540230890e-07	-6.208220e-01	-3.461840e-02	-2.837592e-04	2.226866e-01	2.226866e-01
1.143015540230912e-07	-6.199490e-01	-3.459529e-02	-2.839254e-04	2.226866e-01	2.226866e-01
1.153015540230934e-07	-6.190758e-01	-3.457217e-02	-2.840914e-04	2.226866e-01	2.226866e-01
1.163015540230956e-07	-6.182026e-01	-3.454904e-02	-2.842573e-04	2.226866e-01	2.226866e-01
1.173015540230978e-07	-6.173292e-01	-3.452589e-02	-2.844231e-04	2.226866e-01	2.226866e-01
1.183015540231000e-07	-6.164556e-01	-3.450273e-02	-2.845889e-04	2.226866e-01	2.226866e-01
1.193015540231022e-07	-6.155819e-01	-3.447955e-02	-2.847544e-04	2.226866e-01	2.226866e-01
1.203015540231044e-07	-6.147081e-01	-3.445636e-02	-2.849199e-04	2.226866e-01	2.226866e-01
1.213015540231066e-07	-6.138341e-01	-3.443316e-02	-2.850852e-04	2.226866e-01	2.226866e-01
1.223015540231088e-07	-6.129600e-01	-3.440995e-02	-2.852505e-04	2.226866e-01	2.226866e-01
1.233015540231109e-07	-6.120858e-01	-3.438672e-02	-2.854156e-04	2.226866e-01	2.226866e-01
1.243015540231131e-07	-6.112115e-01	-3.436347e-02	-2.855806e-04	2.226866e-01	2.226866e-01
1.253015540231153e-07	-6.103370e-01	-3.434022e-02	-2.857454e-04	2.226866e-01	2.226866e-01
1.263015540231175e-07	-6.094623e-01	-3.431695e-02	-2.859102e-04	2.226866e-01	2.226866e-01
1.273015540231197e-07	-6.085875e-01	-3.429367e-02	-2.860748e-04	2.226866e-01	2.226866e-01
1.283015540231219e-07	-6.077126e-01	-3.427037e-02	-2.862393e-04	2.226866e-01	2.226866e-01
1.293015540231241e-07	-6.068376e-01	-3.424706e-02	-2.864037e-04	2.226866e-01	2.226866e-01
1.303015540231263e-07	-6.059623e-01	-3.422374e-02	-2.865680e-04	2.226866e-01	2.226866e-01
1.313015540231285e-07	-6.050870e-01	-3.420040e-02	-2.867321e-04	2.226866e-01	2.226866e-01
1.323015540231307e-07	-6.042116e-01	-3.417705e-02	-2.868962e-04	2.226866e-01	2.226866e-01
1.333015540231329e-07	-6.033360e-01	-3.415369e-02	-2.870601e-04	2.226866e-01	2.226866e-01
1.343015540231351e-07	-6.024603e-01	-3.413032e-02	-2.872239e-04	2.226866e-01	2.226866e-01
1.353015540231373e-07	-6.015844e-01	-3.410693e-02	-2.873875e-04	2.226866e-01	2.226866e-01
1.363015540231395e-07	-6.007084e-01	-3.408352e-02	-2.875511e-04	2.226866e-01	2.226866e-01
1.373015540231416e-07	-5.998323e-01	-3.406011e-02	-2.877146e-04	2.226866e-01	2.226866e-01
1.383015540231438e-07	-5.989560e-01	-3.403668e-02	-2.878779e-04	2.226866e-01	2.226866e-01
1.393015540231460e-07	-5.980796e-01	-3.401323e-02	-2.880411e-04	2.226866e-01	2.226866e-01
1.403015540231482e-07	-5.972031e-01	-3.398978e-02	-2.882041e-04	2.226866e-01	2.226866e-01
1.413015540231504e-07	-5.963265e-01	-3.396631e-02	-2.883671e-04	2.226866e-01	2.226866e-01
1.423015540231526e-07	-5.954497e-01	-3.394282e-02	-2.885299e-04	2.226866e-01	2.226866e-01
1.433015540231548e-07	-5.945728e-01	-3.391933e-02	-2.886927e-04	2.226866e-01	2.226866e-01
1.443015540231570e-07	-5.936957e-01	-3.389582e-02	-2.888553e-04	2.226866e-01	2.226866e-01
1.453015540231592e-07	-5.928186e-01	-3.387230e-02	-2.890177e-04	2.226866e-01	2.226866e-01
1.463015540231614e-07	-5.919412e-01	-3.384876e-02	-2.891801e-04	2.226866e-01	2.226866e-01
1.473015540231636e-07	-5.910638e-01	-3.382521e-02	-2.893423e-04	2.226866e-01	2.226866e-01
1.483015540231658e-07	-5.901862e-01	-3.380165e-02	-2.895044e-04	2.226866e-01	2.226866e-01
1.493015540231680e-07	-5.893086e-01	-3.377807e-02	-2.896664e-04	2.226866e-01	2.226866e-01
1.503015540231702e-07	-5.884308e-01	-3.375448e-02	-2.898283e-04	2.226866e-01	2.226866e-01
1.513015540231723e-07	-5.875528e-01	-3.373088e-02	-2.899901e-04	2.226866e-01	2.226866e-01
1.523015540231745e-07	-5.866747e-01	-3.370726e-02	-2.901517e-04	2.226866e-01	2.226866e-01
1.533015540231767e-07	-5.857965e-01	-3.368363e-02	-2.903132e-04	2.226866e-01	2.226866e-01
1.543015540231789e-07	-5.849182e-01	-3.365999e-02	-2.904746e-04	2.226866e-01	2.226866e-01
1.553015540231811e-07	-5.840397e-01	-3.363634e-02	-2.906359e-04	2.226866e-01	2.226866e-01
1.563015540231833e-07	-5.831612e-01	-3.361266e-02	-2.907970e-04	2.226866e-01	2.226866e-01
1.573015540231855e-07	-5.822825e-01	-3.358898e-02	-2.909581e-04	2.226866e-01	2.226866e-01
1.583015540231877e-07	-5.814037e-01	-3.356529e-02	-2.911190e-04	2.226866e-01	2.226866e-01
1.593015540231899e-07	-5.805247e-01	-3.354158e-02	-2.912797e-04	2.226866e-01	2.226866e-01
1.603015540231921e-07	-5.796456e-01	-3.351786e-02	-2.914404e-04	2.226866e-01	2.226866e-01
1.613015540231943e-07	-5.787665e-01	-3.349413e-02	-2.916010e-04	2.226866e-01	2.226866e-01
1.623015540231965e-07	-5.778871e-01	-3.347038e-02	-2.917614e-04	2.226866e-01	2.226866e-01
1.633015540231987e-07	-5.770077e-01	-3.344662e-02	-2.919217e-04	2.226866e-01	2.226866e-01
1.643015540232008e-07	-5.761281e-01	-3.342284e-02	-2.920819e-04	2.226866e-01	2.226866e-01
1.653015540232030e-07	-5.752484e-01	-3.339906e-02	-2.922420e-04	2.226866e-01	2.226866e-01
1.663015540232052e-07	-5.743687e-01	-3.337526e-02	-2.924019e-04	2.226866e-01	2.226866e-01
1.673015540232074e-07	-5.734887e-01	-3.335144e-02	-2.925617e-04	2.226866e-01	2.226866e-01
1.683015540232096e-07	-5.726086e-01	-3.332762e-02	-2.927214e-04	2.226866e-01	2.226866e-01
1.693015540232118e-07	-5.717285e-01	-3.330378e-02	-2.928810e-04	2.226866e-01	2.226866e-01
1.703015540232140e-07	-5.708482e-01	-3.327993e-02	-2.930404e-04	2.226866e-01	2.226866e-01
1.713015540232162e-07	-5.699677e-01	-3.325606e-02	-2.931998e-04	2.226866e-01	2.226866e-01
1.723015540232184e-07	-5.690873e-01	-3.323219e-02	-2.933590e-04	2.226866e-01	2.226866e-01
1.733015540232206e-07	-5.682066e-01	-3.320829e-02	-2.935181e-04	2.226866e-01	2.226866e-01
1.743015540232228e-07	-5.673258e-01	-3.318439e-02	-2.936770e-04	2.226866e-01	2.226866e-01
1.753015540232250e-07	-5.664449e-01	-3.316047e-02	-2.938359e-04	2.226866e-01	2.226866e-01
1.763015540232272e-07	-5.655639e-01	-3.313654e-02	-2.939946e-04	2.226866e-01	2.226866e-01
1.773015540232294e-07	-5.646828e-01	-3.311260e-02	-2.941532e-04	2.226866e-01	2.226866e-01
1.783015540232315e-07	-5.638016e-01	-3.308864e-02	-2.943117e-04	2.226866e-01	2.226866e-01
1.793015540232337e-07	-5.629202e-01	-3.306467e-02	-2.944700e-04	2.226866e-01	2.226866e-01
1.803015540232359e-07	-5.620387e-01	-3.304069e-02	-2.946283e-04	2.226866e-01	2.226866e-01
1.813015540232381e-07	-5.611571e-01	-3.301670e-02	-2.947864e-04	2.226866e-01	2.226866e-01
1.823015540232403e-07	-5.602754e-01	-3.299269e-02	-2.949444e-04	2.226866e-01	2.226866e-01
1.833015540232425e-07	-5.593936e-01	-3.296867e-02	-2.951022e-04	2.226866e-01	2.226866e-01
1.843015540232447e-07	-5.585117e-01	-3.294464e-02	-2.952600e-04	2.226866e-01	2.226866e-01
1.853015540232469e-07	-5.576296e-01	-3.292059e-02	-2.954176e-04	2.226866e-01	2.226866e-01
1.863015540232491e-07	-5.567474e-01	-3.289653e-02	-2.955751e-04	2.226866e-01	2.226866e-01
1.873015540232513e-07	-5.558652e-01	-3.287246e-02	-2.957325e-04	2.226866e-01	2.226866e-01
1.883015540232535e-07	-5.549828e-01	-3.284837e-02	-2.958897e-04	2.226866e-01	2.226866e-01
1.893015540232557e-07	-5.541003e-01	-3.282427e-02	-2.960468e-04	2.226866e-01	2.226866e-01
1.903015540232579e-07	-5.532176e-01	-3.280016e-02	-2.962038e-04	2.226866e-01	2.226866e-01
1.913015540232601e-07	-5.523349e-01	-3.277604e-02	-2.963607e-04	2.226866e-01	2.226866e-01
1.923015540232622e-07	-5.514520e-01	-3.275191e-02	-2.965175e-04	2.226866e-01	2.226866e-01
1.933015540232644e-07	-5.505691e-01	-3.272776e-02	-2.966741e-04	2.226866e-01	2.226866e-01
1.943015540232666e-07	-5.496860e-01	-3.270359e-02	-2.968306e-04	2.226866e-01	2.226866e-01
1.953015540232688e-07	-5.488029e-01	-3.267942e-02	-2.969870e-04	2.226866e-01	2.226866e-01
1.963015540232710e-07	-5.479195e-01	-3.265523e-02	-2.971433e-04	2.226866e-01	2.226866e-01
1.973015540232732e-07	-5.470361e-01	-3.263103e-02	-2.972994e-04	2.226866e-01	2.226866e-01
1.983015540232754e-07	-5.461526e-01	-3.260682e-02	-2.974555e-04	2.226866e-01	2.226866e-01
1.993015540232776e-07	-5.452690e-01	-3.258259e-02	-2.976113e-04	2.226866e-01	2.226866e-01
2.003015540232798e-07	-5.443853e-01	-3.255836e-02	-2.977671e-04	2.226866e-01	2.226866e-01
2.013015540232820e-07	-5.435014e-01	-3.253410e-02	-2.979228e-04	2.226866e-01	2.226866e-01
2.023015540232842e-07	-5.426174e-01	-3.250984e-02	-2.980783e-04	2.226866e-01	2.226866e-01
2.033015540232864e-07	-5.417334e-01	-3.248556e-02	-2.982337e-04	2.226866e-01	2.226866e-01
2.043015540232886e-07	-5.408492e-01	-3.246127e-02	-2.983890e-04	2.226866e-01	2.226866e-01
2.053015540232908e-07	-5.399650e-01	-3.243697e-02	-2.985442e-04	2.226866e-01	2.226866e-01
2.063015540232929e-07	-5.390806e-01	-3.241266e-02	-2.986992e-04	2.226866e-01	2.226866e-01
2.073015540232951e-07	-5.381961e-01	-3.238833e-02	-2.988541e-04	2.226866e-01	2.226866e-01
2.083015540232973e-07	-5.373115e-01	-3.236399e-02	-2.990089e-04	2.226866e-01	2.226866e-01
2.093015540232995e-07	-5.364268e-01	-3.233964e-02	-2.991635e-04	2.226866e-01	2.226866e-01
2.103015540233017e-07	-5.355420e-01	-3.231527e-02	-2.993181e-04	2.226866e-01	2.226866e-01
2.113015540233039e-07	-5.346571e-01	-3.229089e-02	-2.994725e-04	2.226866e-01	2.226866e-01
2.123015540233061e-07	-5.337721e-01	-3.226650e-02	-2.996268e-04	2.226866e-01	2.226866e-01
2.133015540233083e-07	-5.328869e-01	-3.224210e-02	-2.997809e-04	2.226866e-01	2.226866e-01
2.143015540233105e-07	-5.320017e-01	-3.221769e-02	-2.999350e-04	2.226866e-01	2.226866e-01
2.153015540233127e-07	-5.311164e-01	-3.219325e-02	-3.000889e-04	2.226866e-01	2.226866e-01
2.163015540233149e-07	-5.302309e-01	-3.216882e-02	-3.002427e-04	2.226866e-01	2.226866e-01
2.173015540233171e-07	-5.293454e-01	-3.214436e-02	-3.003964e-04	2.226866e-01	2.226866e-01
