time	V(v_y)	V(v_out)	V(v_x)	V(v_90)	V(v_0)
0.000000000000000e+00	-4.276045e-01	2.151199e-01	-3.802401e-04	2.226866e-01	2.226866e-01
9.999999999344301e-11	-4.275641e-01	2.151242e-01	-3.801265e-04	2.226866e-01	2.226866e-01
2.999999999938815e-10	-4.274834e-01	2.151329e-01	-3.798992e-04	2.226866e-01	2.226866e-01
6.999999999947586e-10	-4.273218e-01	2.151503e-01	-3.794448e-04	2.226866e-01	2.226866e-01
1.499999999996513e-09	-4.269987e-01	2.151850e-01	-3.785359e-04	2.226866e-01	2.226866e-01
2.499999999998706e-09	-4.265947e-01	2.152283e-01	-3.773997e-04	2.226866e-01	2.226866e-01
3.500000000000898e-09	-4.261906e-01	2.152715e-01	-3.762635e-04	2.226866e-01	2.226866e-01
4.500000000003091e-09	-4.257863e-01	2.153146e-01	-3.751274e-04	2.226866e-01	2.226866e-01
5.500000000005284e-09	-4.253820e-01	2.153577e-01	-3.739912e-04	2.226866e-01	2.226866e-01
6.500000000007476e-09	-4.249775e-01	2.154006e-01	-3.728550e-04	2.226866e-01	2.226866e-01
7.500000000009669e-09	-4.245729e-01	2.154435e-01	-3.717188e-04	2.226866e-01	2.226866e-01
8.500000000011862e-09	-4.241682e-01	2.154862e-01	-3.705826e-04	2.226866e-01	2.226866e-01
9.500000000014054e-09	-4.237633e-01	2.155289e-01	-3.694464e-04	2.226866e-01	2.226866e-01
1.050000000001625e-08	-4.233584e-01	2.155715e-01	-3.683102e-04	2.226866e-01	2.226866e-01
1.150000000001844e-08	-4.229533e-01	2.156140e-01	-3.671740e-04	2.226866e-01	2.226866e-01
1.250000000002063e-08	-4.225481e-01	2.156564e-01	-3.660378e-04	2.226866e-01	2.226866e-01
1.350000000002283e-08	-4.221428e-01	2.156988e-01	-3.649016e-04	2.226866e-01	2.226866e-01
1.450000000002502e-08	-4.217374e-01	2.157410e-01	-3.637653e-04	2.226866e-01	2.226866e-01
1.550000000002721e-08	-4.213318e-01	2.157831e-01	-3.626291e-04	2.226866e-01	2.226866e-01
1.650000000002940e-08	-4.209262e-01	2.158252e-01	-3.614929e-04	2.226866e-01	2.226866e-01
1.750000000003160e-08	-4.205204e-01	2.158672e-01	-3.603566e-04	2.226866e-01	2.226866e-01
1.850000000003379e-08	-4.201145e-01	2.159090e-01	-3.592204e-04	2.226866e-01	2.226866e-01
1.950000000003598e-08	-4.197084e-01	2.159508e-01	-3.580842e-04	2.226866e-01	2.226866e-01
2.050000000003817e-08	-4.193023e-01	2.159925e-01	-3.569479e-04	2.226866e-01	2.226866e-01
2.150000000004037e-08	-4.188960e-01	2.160341e-01	-3.558117e-04	2.226866e-01	2.226866e-01
2.250000000004256e-08	-4.184897e-01	2.160757e-01	-3.546754e-04	2.226866e-01	2.226866e-01
2.350000000004475e-08	-4.180832e-01	2.161171e-01	-3.535392e-04	2.226866e-01	2.226866e-01
2.450000000004695e-08	-4.176766e-01	2.161584e-01	-3.524029e-04	2.226866e-01	2.226866e-01
2.550000000004914e-08	-4.172698e-01	2.161997e-01	-3.512667e-04	2.226866e-01	2.226866e-01
2.650000000005133e-08	-4.168630e-01	2.162409e-01	-3.501305e-04	2.226866e-01	2.226866e-01
2.750000000005352e-08	-4.164560e-01	2.162820e-01	-3.489942e-04	2.226866e-01	2.226866e-01
2.850000000005572e-08	-4.160490e-01	2.163229e-01	-3.478580e-04	2.226866e-01	2.226866e-01
2.950000000005791e-08	-4.156418e-01	2.163638e-01	-3.467218e-04	2.226866e-01	2.226866e-01
3.050000000006010e-08	-4.152345e-01	2.164046e-01	-3.455855e-04	2.226866e-01	2.226866e-01
3.150000000006229e-08	-4.148270e-01	2.164454e-01	-3.444493e-04	2.226866e-01	2.226866e-01
3.250000000006449e-08	-4.144195e-01	2.164860e-01	-3.433131e-04	2.226866e-01	2.226866e-01
3.350000000006668e-08	-4.140119e-01	2.165265e-01	-3.421769e-04	2.226866e-01	2.226866e-01
3.450000000006887e-08	-4.136041e-01	2.165670e-01	-3.410407e-04	2.226866e-01	2.226866e-01
3.550000000007106e-08	-4.131962e-01	2.166073e-01	-3.399045e-04	2.226866e-01	2.226866e-01
3.650000000007326e-08	-4.127882e-01	2.166476e-01	-3.387683e-04	2.226866e-01	2.226866e-01
3.750000000007545e-08	-4.123802e-01	2.166878e-01	-3.376321e-04	2.226866e-01	2.226866e-01
3.850000000007764e-08	-4.119719e-01	2.167279e-01	-3.364959e-04	2.226866e-01	2.226866e-01
3.950000000007984e-08	-4.115636e-01	2.167679e-01	-3.353597e-04	2.226866e-01	2.226866e-01
4.050000000008203e-08	-4.111552e-01	2.168078e-01	-3.342236e-04	2.226866e-01	2.226866e-01
4.150000000008422e-08	-4.107466e-01	2.168477e-01	-3.330874e-04	2.226866e-01	2.226866e-01
4.250000000008641e-08	-4.103379e-01	2.168874e-01	-3.319512e-04	2.226866e-01	2.226866e-01
4.350000000008861e-08	-4.099292e-01	2.169271e-01	-3.308151e-04	2.226866e-01	2.226866e-01
4.450000000009080e-08	-4.095202e-01	2.169666e-01	-3.296790e-04	2.226866e-01	2.226866e-01
4.550000000009299e-08	-4.091112e-01	2.170061e-01	-3.285428e-04	2.226866e-01	2.226866e-01
4.650000000009518e-08	-4.087021e-01	2.170455e-01	-3.274067e-04	2.226866e-01	2.226866e-01
4.750000000009738e-08	-4.082929e-01	2.170848e-01	-3.262706e-04	2.226866e-01	2.226866e-01
4.850000000009957e-08	-4.078836e-01	2.171240e-01	-3.251345e-04	2.226866e-01	2.226866e-01
4.950000000010176e-08	-4.074741e-01	2.171631e-01	-3.239985e-04	2.226866e-01	2.226866e-01
5.050000000010396e-08	-4.070645e-01	2.172021e-01	-3.228624e-04	2.226866e-01	2.226866e-01
5.150000000010615e-08	-4.066548e-01	2.172410e-01	-3.217263e-04	2.226866e-01	2.226866e-01
5.250000000010834e-08	-4.062451e-01	2.172799e-01	-3.205903e-04	2.226866e-01	2.226866e-01
5.350000000011053e-08	-4.058352e-01	2.173186e-01	-3.194543e-04	2.226866e-01	2.226866e-01
5.450000000011273e-08	-4.054251e-01	2.173573e-01	-3.183183e-04	2.226866e-01	2.226866e-01
5.550000000011492e-08	-4.050150e-01	2.173959e-01	-3.171822e-04	2.226866e-01	2.226866e-01
5.650000000011711e-08	-4.046048e-01	2.174344e-01	-3.160463e-04	2.226866e-01	2.226866e-01
5.750000000011930e-08	-4.041944e-01	2.174728e-01	-3.149103e-04	2.226866e-01	2.226866e-01
5.850000000012150e-08	-4.037840e-01	2.175111e-01	-3.137743e-04	2.226866e-01	2.226866e-01
5.950000000012369e-08	-4.033735e-01	2.175493e-01	-3.126384e-04	2.226866e-01	2.226866e-01
6.050000000012588e-08	-4.029628e-01	2.175874e-01	-3.115025e-04	2.226866e-01	2.226866e-01
6.150000000012808e-08	-4.025520e-01	2.176255e-01	-3.103666e-04	2.226866e-01	2.226866e-01
6.250000000013027e-08	-4.021411e-01	2.176634e-01	-3.092307e-04	2.226866e-01	2.226866e-01
6.350000000013246e-08	-4.017301e-01	2.177013e-01	-3.080948e-04	2.226866e-01	2.226866e-01
6.450000000013465e-08	-4.013190e-01	2.177391e-01	-3.069590e-04	2.226866e-01	2.226866e-01
6.550000000013685e-08	-4.009078e-01	2.177768e-01	-3.058231e-04	2.226866e-01	2.226866e-01
6.650000000013904e-08	-4.004965e-01	2.178144e-01	-3.046873e-04	2.226866e-01	2.226866e-01
6.750000000014123e-08	-4.000850e-01	2.178519e-01	-3.035516e-04	2.226866e-01	2.226866e-01
6.850000000014342e-08	-3.996735e-01	2.178893e-01	-3.024158e-04	2.226866e-01	2.226866e-01
6.950000000014562e-08	-3.992618e-01	2.179266e-01	-3.012800e-04	2.226866e-01	2.226866e-01
7.050000000014781e-08	-3.988501e-01	2.179638e-01	-3.001443e-04	2.226866e-01	2.226866e-01
7.150000000015000e-08	-3.984382e-01	2.180010e-01	-2.990086e-04	2.226866e-01	2.226866e-01
7.250000000015220e-08	-3.980262e-01	2.180381e-01	-2.978729e-04	2.226866e-01	2.226866e-01
7.350000000015439e-08	-3.976142e-01	2.180750e-01	-2.967372e-04	2.226866e-01	2.226866e-01
7.450000000015658e-08	-3.972020e-01	2.181119e-01	-2.956016e-04	2.226866e-01	2.226866e-01
7.550000000015877e-08	-3.967897e-01	2.181487e-01	-2.944660e-04	2.226866e-01	2.226866e-01
7.650000000016097e-08	-3.963773e-01	2.181854e-01	-2.933304e-04	2.226866e-01	2.226866e-01
7.750000000016316e-08	-3.959648e-01	2.182220e-01	-2.921948e-04	2.226866e-01	2.226866e-01
7.850000000016535e-08	-3.955522e-01	2.182585e-01	-2.910593e-04	2.226866e-01	2.226866e-01
7.950000000016754e-08	-3.951395e-01	2.182950e-01	-2.899238e-04	2.226866e-01	2.226866e-01
8.050000000016974e-08	-3.947266e-01	2.183313e-01	-2.887883e-04	2.226866e-01	2.226866e-01
8.150000000017193e-08	-3.943137e-01	2.183676e-01	-2.876528e-04	2.226866e-01	2.226866e-01
8.250000000017412e-08	-3.939007e-01	2.184037e-01	-2.865173e-04	2.226866e-01	2.226866e-01
8.350000000017632e-08	-3.934875e-01	2.184398e-01	-2.853819e-04	2.226866e-01	2.226866e-01
8.450000000017851e-08	-3.930743e-01	2.184758e-01	-2.842465e-04	2.226866e-01	2.226866e-01
8.550000000018070e-08	-3.926609e-01	2.185117e-01	-2.831112e-04	2.226866e-01	2.226866e-01
8.650000000018289e-08	-3.922475e-01	2.185475e-01	-2.819759e-04	2.226866e-01	2.226866e-01
8.750000000018509e-08	-3.918339e-01	2.185832e-01	-2.808406e-04	2.226866e-01	2.226866e-01
8.850000000018728e-08	-3.914203e-01	2.186189e-01	-2.797053e-04	2.226866e-01	2.226866e-01
8.950000000018947e-08	-3.910065e-01	2.186544e-01	-2.785700e-04	2.226866e-01	2.226866e-01
9.050000000019166e-08	-3.905926e-01	2.186898e-01	-2.774348e-04	2.226866e-01	2.226866e-01
9.150000000019386e-08	-3.901787e-01	2.187252e-01	-2.762996e-04	2.226866e-01	2.226866e-01
9.250000000019605e-08	-3.897646e-01	2.187605e-01	-2.751645e-04	2.226866e-01	2.226866e-01
9.350000000019824e-08	-3.893504e-01	2.187957e-01	-2.740294e-04	2.226866e-01	2.226866e-01
9.450000000020043e-08	-3.889361e-01	2.188307e-01	-2.728942e-04	2.226866e-01	2.226866e-01
9.550000000020263e-08	-3.885217e-01	2.188658e-01	-2.717592e-04	2.226866e-01	2.226866e-01
9.650000000020482e-08	-3.881072e-01	2.189007e-01	-2.706242e-04	2.226866e-01	2.226866e-01
9.750000000020701e-08	-3.876927e-01	2.189355e-01	-2.694892e-04	2.226866e-01	2.226866e-01
9.850000000020921e-08	-3.872780e-01	2.189702e-01	-2.683542e-04	2.226866e-01	2.226866e-01
9.950000000021140e-08	-3.868632e-01	2.190049e-01	-2.672193e-04	2.226866e-01	2.226866e-01
1.005000000002136e-07	-3.864483e-01	2.190394e-01	-2.660844e-04	2.226866e-01	2.226866e-01
1.015000000002158e-07	-3.860333e-01	2.190739e-01	-2.649495e-04	2.226866e-01	2.226866e-01
1.025000000002180e-07	-3.856182e-01	2.191083e-01	-2.638147e-04	2.226866e-01	2.226866e-01
1.035000000002202e-07	-3.852030e-01	2.191426e-01	-2.626799e-04	2.226866e-01	2.226866e-01
1.045000000002224e-07	-3.847876e-01	2.191768e-01	-2.615451e-04	2.226866e-01	2.226866e-01
1.055000000002246e-07	-3.843723e-01	2.192109e-01	-2.604104e-04	2.226866e-01	2.226866e-01
1.065000000002267e-07	-3.839568e-01	2.192449e-01	-2.592757e-04	2.226866e-01	2.226866e-01
1.075000000002289e-07	-3.835411e-01	2.192788e-01	-2.581411e-04	2.226866e-01	2.226866e-01
1.085000000002311e-07	-3.831254e-01	2.193127e-01	-2.570065e-04	2.226866e-01	2.226866e-01
1.095000000002333e-07	-3.827096e-01	2.193464e-01	-2.558719e-04	2.226866e-01	2.226866e-01
1.105000000002355e-07	-3.822937e-01	2.193801e-01	-2.547374e-04	2.226866e-01	2.226866e-01
1.115000000002377e-07	-3.818777e-01	2.194136e-01	-2.536029e-04	2.226866e-01	2.226866e-01
1.125000000002399e-07	-3.814616e-01	2.194471e-01	-2.524684e-04	2.226866e-01	2.226866e-01
1.135000000002421e-07	-3.810454e-01	2.194805e-01	-2.513340e-04	2.226866e-01	2.226866e-01
1.145000000002443e-07	-3.806291e-01	2.195138e-01	-2.501996e-04	2.226866e-01	2.226866e-01
1.155000000002465e-07	-3.802127e-01	2.195470e-01	-2.490653e-04	2.226866e-01	2.226866e-01
1.165000000002487e-07	-3.797962e-01	2.195801e-01	-2.479310e-04	2.226866e-01	2.226866e-01
1.175000000002509e-07	-3.793796e-01	2.196132e-01	-2.467967e-04	2.226866e-01	2.226866e-01
1.185000000002531e-07	-3.789629e-01	2.196461e-01	-2.456625e-04	2.226866e-01	2.226866e-01
1.195000000002553e-07	-3.785461e-01	2.196790e-01	-2.445283e-04	2.226866e-01	2.226866e-01
1.205000000002574e-07	-3.781292e-01	2.197118e-01	-2.433942e-04	2.226866e-01	2.226866e-01
1.215000000002596e-07	-3.777122e-01	2.197444e-01	-2.422601e-04	2.226866e-01	2.226866e-01
1.225000000002618e-07	-3.772951e-01	2.197770e-01	-2.411261e-04	2.226866e-01	2.226866e-01
1.235000000002640e-07	-3.768779e-01	2.198095e-01	-2.399921e-04	2.226866e-01	2.226866e-01
1.245000000002662e-07	-3.764606e-01	2.198419e-01	-2.388581e-04	2.226866e-01	2.226866e-01
1.255000000002684e-07	-3.760432e-01	2.198742e-01	-2.377242e-04	2.226866e-01	2.226866e-01
1.265000000002706e-07	-3.756257e-01	2.199065e-01	-2.365903e-04	2.226866e-01	2.226866e-01
1.275000000002728e-07	-3.752081e-01	2.199386e-01	-2.354565e-04	2.226866e-01	2.226866e-01
1.285000000002750e-07	-3.747905e-01	2.199707e-01	-2.343228e-04	2.226866e-01	2.226866e-01
1.295000000002772e-07	-3.743727e-01	2.200026e-01	-2.331890e-04	2.226866e-01	2.226866e-01
1.305000000002794e-07	-3.739548e-01	2.200345e-01	-2.320553e-04	2.226866e-01	2.226866e-01
1.315000000002816e-07	-3.735369e-01	2.200663e-01	-2.309217e-04	2.226866e-01	2.226866e-01
1.325000000002838e-07	-3.731188e-01	2.200980e-01	-2.297881e-04	2.226866e-01	2.226866e-01
1.335000000002860e-07	-3.727006e-01	2.201296e-01	-2.286546e-04	2.226866e-01	2.226866e-01
1.345000000002881e-07	-3.722824e-01	2.201611e-01	-2.275211e-04	2.226866e-01	2.226866e-01
1.355000000002903e-07	-3.718640e-01	2.201925e-01	-2.263876e-04	2.226866e-01	2.226866e-01
1.365000000002925e-07	-3.714456e-01	2.202238e-01	-2.252542e-04	2.226866e-01	2.226866e-01
1.375000000002947e-07	-3.710270e-01	2.202551e-01	-2.241209e-04	2.226866e-01	2.226866e-01
1.385000000002969e-07	-3.706084e-01	2.202862e-01	-2.229876e-04	2.226866e-01	2.226866e-01
1.395000000002991e-07	-3.701896e-01	2.203173e-01	-2.218543e-04	2.226866e-01	2.226866e-01
1.405000000003013e-07	-3.697708e-01	2.203483e-01	-2.207212e-04	2.226866e-01	2.226866e-01
1.415000000003035e-07	-3.693519e-01	2.203791e-01	-2.195880e-04	2.226866e-01	2.226866e-01
1.425000000003057e-07	-3.689329e-01	2.204099e-01	-2.184549e-04	2.226866e-01	2.226866e-01
1.435000000003079e-07	-3.685138e-01	2.204407e-01	-2.173219e-04	2.226866e-01	2.226866e-01
1.445000000003101e-07	-3.680946e-01	2.204713e-01	-2.161889e-04	2.226866e-01	2.226866e-01
1.455000000003123e-07	-3.676753e-01	2.205018e-01	-2.150559e-04	2.226866e-01	2.226866e-01
1.465000000003145e-07	-3.672559e-01	2.205322e-01	-2.139231e-04	2.226866e-01	2.226866e-01
1.475000000003166e-07	-3.668364e-01	2.205626e-01	-2.127902e-04	2.226866e-01	2.226866e-01
1.485000000003188e-07	-3.664168e-01	2.205928e-01	-2.116574e-04	2.226866e-01	2.226866e-01
1.495000000003210e-07	-3.659971e-01	2.206230e-01	-2.105247e-04	2.226866e-01	2.226866e-01
1.505000000003232e-07	-3.655774e-01	2.206531e-01	-2.093921e-04	2.226866e-01	2.226866e-01
1.515000000003254e-07	-3.651575e-01	2.206831e-01	-2.082595e-04	2.226866e-01	2.226866e-01
1.525000000003276e-07	-3.647376e-01	2.207130e-01	-2.071269e-04	2.226866e-01	2.226866e-01
1.535000000003298e-07	-3.643175e-01	2.207428e-01	-2.059944e-04	2.226866e-01	2.226866e-01
1.545000000003320e-07	-3.638974e-01	2.207725e-01	-2.048619e-04	2.226866e-01	2.226866e-01
1.555000000003342e-07	-3.634772e-01	2.208021e-01	-2.037296e-04	2.226866e-01	2.226866e-01
1.565000000003364e-07	-3.630568e-01	2.208317e-01	-2.025972e-04	2.226866e-01	2.226866e-01
1.575000000003386e-07	-3.626364e-01	2.208611e-01	-2.014650e-04	2.226866e-01	2.226866e-01
1.585000000003408e-07	-3.622159e-01	2.208905e-01	-2.003327e-04	2.226866e-01	2.226866e-01
1.595000000003430e-07	-3.617953e-01	2.209198e-01	-1.992006e-04	2.226866e-01	2.226866e-01
1.605000000003452e-07	-3.613746e-01	2.209490e-01	-1.980685e-04	2.226866e-01	2.226866e-01
1.615000000003473e-07	-3.609539e-01	2.209781e-01	-1.969365e-04	2.226866e-01	2.226866e-01
1.625000000003495e-07	-3.605330e-01	2.210070e-01	-1.958045e-04	2.226866e-01	2.226866e-01
1.635000000003517e-07	-3.601121e-01	2.210360e-01	-1.946726e-04	2.226866e-01	2.226866e-01
1.645000000003539e-07	-3.596910e-01	2.210648e-01	-1.935407e-04	2.226866e-01	2.226866e-01
1.655000000003561e-07	-3.592699e-01	2.210935e-01	-1.924089e-04	2.226866e-01	2.226866e-01
1.665000000003583e-07	-3.588487e-01	2.211222e-01	-1.912772e-04	2.226866e-01	2.226866e-01
1.675000000003605e-07	-3.584273e-01	2.211507e-01	-1.901455e-04	2.226866e-01	2.226866e-01
1.685000000003627e-07	-3.580059e-01	2.211792e-01	-1.890139e-04	2.226866e-01	2.226866e-01
1.695000000003649e-07	-3.575844e-01	2.212076e-01	-1.878823e-04	2.226866e-01	2.226866e-01
1.705000000003671e-07	-3.571629e-01	2.212359e-01	-1.867508e-04	2.226866e-01	2.226866e-01
1.715000000003693e-07	-3.567412e-01	2.212641e-01	-1.856194e-04	2.226866e-01	2.226866e-01
1.725000000003715e-07	-3.563194e-01	2.212922e-01	-1.844880e-04	2.226866e-01	2.226866e-01
1.735000000003737e-07	-3.558976e-01	2.213202e-01	-1.833567e-04	2.226866e-01	2.226866e-01
1.745000000003759e-07	-3.554756e-01	2.213481e-01	-1.822255e-04	2.226866e-01	2.226866e-01
1.755000000003780e-07	-3.550536e-01	2.213760e-01	-1.810943e-04	2.226866e-01	2.226866e-01
1.765000000003802e-07	-3.546315e-01	2.214037e-01	-1.799632e-04	2.226866e-01	2.226866e-01
1.775000000003824e-07	-3.542093e-01	2.214314e-01	-1.788322e-04	2.226866e-01	2.226866e-01
1.785000000003846e-07	-3.537870e-01	2.214589e-01	-1.777012e-04	2.226866e-01	2.226866e-01
1.795000000003868e-07	-3.533646e-01	2.214864e-01	-1.765703e-04	2.226866e-01	2.226866e-01
1.805000000003890e-07	-3.529421e-01	2.215138e-01	-1.754395e-04	2.226866e-01	2.226866e-01
1.815000000003912e-07	-3.525196e-01	2.215411e-01	-1.743087e-04	2.226866e-01	2.226866e-01
1.825000000003934e-07	-3.520969e-01	2.215683e-01	-1.731780e-04	2.226866e-01	2.226866e-01
1.835000000003956e-07	-3.516742e-01	2.215955e-01	-1.720474e-04	2.226866e-01	2.226866e-01
1.845000000003978e-07	-3.512514e-01	2.216225e-01	-1.709168e-04	2.226866e-01	2.226866e-01
1.855000000004000e-07	-3.508285e-01	2.216494e-01	-1.697863e-04	2.226866e-01	2.226866e-01
1.865000000004022e-07	-3.504055e-01	2.216763e-01	-1.686559e-04	2.226866e-01	2.226866e-01
1.875000000004044e-07	-3.499824e-01	2.217031e-01	-1.675255e-04	2.226866e-01	2.226866e-01
1.885000000004065e-07	-3.495593e-01	2.217297e-01	-1.663952e-04	2.226866e-01	2.226866e-01
1.895000000004087e-07	-3.491360e-01	2.217563e-01	-1.652650e-04	2.226866e-01	2.226866e-01
1.905000000004109e-07	-3.487127e-01	2.217828e-01	-1.641348e-04	2.226866e-01	2.226866e-01
1.915000000004131e-07	-3.482893e-01	2.218092e-01	-1.630047e-04	2.226866e-01	2.226866e-01
1.925000000004153e-07	-3.478658e-01	2.218355e-01	-1.618747e-04	2.226866e-01	2.226866e-01
1.935000000004175e-07	-3.474422e-01	2.218618e-01	-1.607448e-04	2.226866e-01	2.226866e-01
1.945000000004197e-07	-3.470185e-01	2.218879e-01	-1.596149e-04	2.226866e-01	2.226866e-01
1.955000000004219e-07	-3.465948e-01	2.219139e-01	-1.584852e-04	2.226866e-01	2.226866e-01
1.965000000004241e-07	-3.461709e-01	2.219399e-01	-1.573554e-04	2.226866e-01	2.226866e-01
1.975000000004263e-07	-3.457470e-01	2.219658e-01	-1.562258e-04	2.226866e-01	2.226866e-01
1.985000000004285e-07	-3.453230e-01	2.219916e-01	-1.550962e-04	2.226866e-01	2.226866e-01
1.995000000004307e-07	-3.448989e-01	2.220172e-01	-1.539667e-04	2.226866e-01	2.226866e-01
2.005000000004329e-07	-3.444747e-01	2.220428e-01	-1.528373e-04	2.226866e-01	2.226866e-01
2.015000000004351e-07	-3.440504e-01	2.220684e-01	-1.517080e-04	2.226866e-01	2.226866e-01
2.025000000004372e-07	-3.436261e-01	2.220938e-01	-1.505787e-04	2.226866e-01	2.226866e-01
2.035000000004394e-07	-3.432016e-01	2.221191e-01	-1.494495e-04	2.226866e-01	2.226866e-01
2.045000000004416e-07	-3.427771e-01	2.221444e-01	-1.483204e-04	2.226866e-01	2.226866e-01
2.055000000004438e-07	-3.423525e-01	2.221695e-01	-1.471913e-04	2.226866e-01	2.226866e-01
2.065000000004460e-07	-3.419279e-01	2.221946e-01	-1.460623e-04	2.226866e-01	2.226866e-01
2.075000000004482e-07	-3.415031e-01	2.222195e-01	-1.449335e-04	2.226866e-01	2.226866e-01
2.085000000004504e-07	-3.410783e-01	2.222444e-01	-1.438046e-04	2.226866e-01	2.226866e-01
2.095000000004526e-07	-3.406533e-01	2.222692e-01	-1.426759e-04	2.226866e-01	2.226866e-01
2.105000000004548e-07	-3.402283e-01	2.222939e-01	-1.415473e-04	2.226866e-01	2.226866e-01
2.115000000004570e-07	-3.398032e-01	2.223185e-01	-1.404187e-04	2.226866e-01	2.226866e-01
2.125000000004592e-07	-3.393780e-01	2.223431e-01	-1.392902e-04	2.226866e-01	2.226866e-01
2.135000000004614e-07	-3.389528e-01	2.223675e-01	-1.381617e-04	2.226866e-01	2.226866e-01
2.145000000004636e-07	-3.385274e-01	2.223918e-01	-1.370334e-04	2.226866e-01	2.226866e-01
2.155000000004658e-07	-3.381020e-01	2.224161e-01	-1.359052e-04	2.226866e-01	2.226866e-01
2.165000000004679e-07	-3.376765e-01	2.224403e-01	-1.347770e-04	2.226866e-01	2.226866e-01
2.175000000004701e-07	-3.372509e-01	2.224644e-01	-1.336489e-04	2.226866e-01	2.226866e-01
2.185000000004723e-07	-3.368253e-01	2.224883e-01	-1.325209e-04	2.226866e-01	2.226866e-01
2.195000000004745e-07	-3.363995e-01	2.225122e-01	-1.313929e-04	2.226866e-01	2.226866e-01
2.205000000004767e-07	-3.359737e-01	2.225360e-01	-1.302651e-04	2.226866e-01	2.226866e-01
