time	V(v_y)	V(v_out)	V(v_x)	V(v_90)	V(v_0)
0.000000000000000e+00	-7.697223e-01	3.920401e-02	-9.614268e-05	2.226866e-01	2.226866e-01
9.999999999344301e-11	-7.696487e-01	3.920480e-02	-9.612280e-05	2.226866e-01	2.226866e-01
2.999999999938815e-10	-7.695017e-01	3.920638e-02	-9.608302e-05	2.226866e-01	2.226866e-01
6.999999999947586e-10	-7.692075e-01	3.920953e-02	-9.600347e-05	2.226866e-01	2.226866e-01
1.499999999996513e-09	-7.686191e-01	3.921583e-02	-9.584438e-05	2.226866e-01	2.226866e-01
2.499999999998706e-09	-7.678834e-01	3.922369e-02	-9.564548e-05	2.226866e-01	2.226866e-01
3.500000000000898e-09	-7.671474e-01	3.923153e-02	-9.544658e-05	2.226866e-01	2.226866e-01
4.500000000003091e-09	-7.664112e-01	3.923936e-02	-9.524765e-05	2.226866e-01	2.226866e-01
5.500000000005284e-09	-7.656749e-01	3.924717e-02	-9.504872e-05	2.226866e-01	2.226866e-01
6.500000000007476e-09	-7.649383e-01	3.925496e-02	-9.484977e-05	2.226866e-01	2.226866e-01
7.500000000009669e-09	-7.642015e-01	3.926274e-02	-9.465081e-05	2.226866e-01	2.226866e-01
8.500000000011862e-09	-7.634645e-01	3.927050e-02	-9.445183e-05	2.226866e-01	2.226866e-01
9.500000000014054e-09	-7.627273e-01	3.927824e-02	-9.425283e-05	2.226866e-01	2.226866e-01
1.050000000001625e-08	-7.619898e-01	3.928597e-02	-9.405383e-05	2.226866e-01	2.226866e-01
1.150000000001844e-08	-7.612522e-01	3.929368e-02	-9.385481e-05	2.226866e-01	2.226866e-01
1.250000000002063e-08	-7.605143e-01	3.930138e-02	-9.365578e-05	2.226866e-01	2.226866e-01
1.350000000002283e-08	-7.597762e-01	3.930906e-02	-9.345672e-05	2.226866e-01	2.226866e-01
1.450000000002502e-08	-7.590379e-01	3.931672e-02	-9.325767e-05	2.226866e-01	2.226866e-01
1.550000000002721e-08	-7.582994e-01	3.932437e-02	-9.305859e-05	2.226866e-01	2.226866e-01
1.650000000002940e-08	-7.575607e-01	3.933200e-02	-9.285950e-05	2.226866e-01	2.226866e-01
1.750000000003160e-08	-7.568218e-01	3.933961e-02	-9.266039e-05	2.226866e-01	2.226866e-01
1.850000000003379e-08	-7.560827e-01	3.934721e-02	-9.246128e-05	2.226866e-01	2.226866e-01
1.950000000003598e-08	-7.553433e-01	3.935479e-02	-9.226215e-05	2.226866e-01	2.226866e-01
2.050000000003817e-08	-7.546037e-01	3.936236e-02	-9.206300e-05	2.226866e-01	2.226866e-01
2.150000000004037e-08	-7.538640e-01	3.936991e-02	-9.186385e-05	2.226866e-01	2.226866e-01
2.250000000004256e-08	-7.531240e-01	3.937744e-02	-9.166467e-05	2.226866e-01	2.226866e-01
2.350000000004475e-08	-7.523838e-01	3.938496e-02	-9.146550e-05	2.226866e-01	2.226866e-01
2.450000000004695e-08	-7.516435e-01	3.939246e-02	-9.126630e-05	2.226866e-01	2.226866e-01
2.550000000004914e-08	-7.509028e-01	3.939994e-02	-9.106709e-05	2.226866e-01	2.226866e-01
2.650000000005133e-08	-7.501621e-01	3.940741e-02	-9.086787e-05	2.226866e-01	2.226866e-01
2.750000000005352e-08	-7.494211e-01	3.941487e-02	-9.066863e-05	2.226866e-01	2.226866e-01
2.850000000005572e-08	-7.486798e-01	3.942230e-02	-9.046939e-05	2.226866e-01	2.226866e-01
2.950000000005791e-08	-7.479384e-01	3.942972e-02	-9.027013e-05	2.226866e-01	2.226866e-01
3.050000000006010e-08	-7.471968e-01	3.943713e-02	-9.007086e-05	2.226866e-01	2.226866e-01
3.150000000006229e-08	-7.464550e-01	3.944451e-02	-8.987157e-05	2.226866e-01	2.226866e-01
3.250000000006449e-08	-7.457129e-01	3.945188e-02	-8.967228e-05	2.226866e-01	2.226866e-01
3.350000000006668e-08	-7.449707e-01	3.945924e-02	-8.947297e-05	2.226866e-01	2.226866e-01
3.450000000006887e-08	-7.442282e-01	3.946658e-02	-8.927366e-05	2.226866e-01	2.226866e-01
3.550000000007106e-08	-7.434856e-01	3.947390e-02	-8.907432e-05	2.226866e-01	2.226866e-01
3.650000000007326e-08	-7.427427e-01	3.948120e-02	-8.887498e-05	2.226866e-01	2.226866e-01
3.750000000007545e-08	-7.419996e-01	3.948849e-02	-8.867562e-05	2.226866e-01	2.226866e-01
3.850000000007764e-08	-7.412564e-01	3.949577e-02	-8.847626e-05	2.226866e-01	2.226866e-01
3.950000000007984e-08	-7.405129e-01	3.950303e-02	-8.827688e-05	2.226866e-01	2.226866e-01
4.050000000008203e-08	-7.397692e-01	3.951027e-02	-8.807749e-05	2.226866e-01	2.226866e-01
4.150000000008422e-08	-7.390254e-01	3.951749e-02	-8.787809e-05	2.226866e-01	2.226866e-01
4.250000000008641e-08	-7.382812e-01	3.952470e-02	-8.767868e-05	2.226866e-01	2.226866e-01
4.350000000008861e-08	-7.375370e-01	3.953189e-02	-8.747925e-05	2.226866e-01	2.226866e-01
4.450000000009080e-08	-7.367925e-01	3.953907e-02	-8.727982e-05	2.226866e-01	2.226866e-01
4.550000000009299e-08	-7.360479e-01	3.954623e-02	-8.708037e-05	2.226866e-01	2.226866e-01
4.650000000009518e-08	-7.353030e-01	3.955337e-02	-8.688091e-05	2.226866e-01	2.226866e-01
4.750000000009738e-08	-7.345579e-01	3.956050e-02	-8.668145e-05	2.226866e-01	2.226866e-01
4.850000000009957e-08	-7.338126e-01	3.956761e-02	-8.648197e-05	2.226866e-01	2.226866e-01
4.950000000010176e-08	-7.330671e-01	3.957471e-02	-8.628248e-05	2.226866e-01	2.226866e-01
5.050000000010396e-08	-7.323214e-01	3.958178e-02	-8.608298e-05	2.226866e-01	2.226866e-01
5.150000000010615e-08	-7.315755e-01	3.958885e-02	-8.588348e-05	2.226866e-01	2.226866e-01
5.250000000010834e-08	-7.308295e-01	3.959589e-02	-8.568395e-05	2.226866e-01	2.226866e-01
5.350000000011053e-08	-7.300832e-01	3.960292e-02	-8.548443e-05	2.226866e-01	2.226866e-01
5.450000000011273e-08	-7.293367e-01	3.960994e-02	-8.528488e-05	2.226866e-01	2.226866e-01
5.550000000011492e-08	-7.285901e-01	3.961693e-02	-8.508533e-05	2.226866e-01	2.226866e-01
5.650000000011711e-08	-7.278432e-01	3.962391e-02	-8.488577e-05	2.226866e-01	2.226866e-01
5.750000000011930e-08	-7.270961e-01	3.963087e-02	-8.468619e-05	2.226866e-01	2.226866e-01
5.850000000012150e-08	-7.263489e-01	3.963782e-02	-8.448662e-05	2.226866e-01	2.226866e-01
5.950000000012369e-08	-7.256014e-01	3.964476e-02	-8.428703e-05	2.226866e-01	2.226866e-01
6.050000000012588e-08	-7.248538e-01	3.965167e-02	-8.408743e-05	2.226866e-01	2.226866e-01
6.150000000012808e-08	-7.241060e-01	3.965857e-02	-8.388782e-05	2.226866e-01	2.226866e-01
6.250000000013027e-08	-7.233579e-01	3.966545e-02	-8.368820e-05	2.226866e-01	2.226866e-01
6.350000000013246e-08	-7.226096e-01	3.967232e-02	-8.348856e-05	2.226866e-01	2.226866e-01
6.450000000013465e-08	-7.218612e-01	3.967917e-02	-8.328893e-05	2.226866e-01	2.226866e-01
6.550000000013685e-08	-7.211126e-01	3.968601e-02	-8.308928e-05	2.226866e-01	2.226866e-01
6.650000000013904e-08	-7.203638e-01	3.969282e-02	-8.288962e-05	2.226866e-01	2.226866e-01
6.750000000014123e-08	-7.196148e-01	3.969963e-02	-8.268996e-05	2.226866e-01	2.226866e-01
6.850000000014342e-08	-7.188656e-01	3.970641e-02	-8.249028e-05	2.226866e-01	2.226866e-01
6.950000000014562e-08	-7.181162e-01	3.971318e-02	-8.229060e-05	2.226866e-01	2.226866e-01
7.050000000014781e-08	-7.173666e-01	3.971993e-02	-8.209090e-05	2.226866e-01	2.226866e-01
7.150000000015000e-08	-7.166168e-01	3.972667e-02	-8.189121e-05	2.226866e-01	2.226866e-01
7.250000000015220e-08	-7.158669e-01	3.973339e-02	-8.169150e-05	2.226866e-01	2.226866e-01
7.350000000015439e-08	-7.151167e-01	3.974009e-02	-8.149177e-05	2.226866e-01	2.226866e-01
7.450000000015658e-08	-7.143663e-01	3.974678e-02	-8.129205e-05	2.226866e-01	2.226866e-01
7.550000000015877e-08	-7.136158e-01	3.975345e-02	-8.109232e-05	2.226866e-01	2.226866e-01
7.650000000016097e-08	-7.128651e-01	3.976011e-02	-8.089257e-05	2.226866e-01	2.226866e-01
7.750000000016316e-08	-7.121141e-01	3.976675e-02	-8.069281e-05	2.226866e-01	2.226866e-01
7.850000000016535e-08	-7.113630e-01	3.977337e-02	-8.049305e-05	2.226866e-01	2.226866e-01
7.950000000016754e-08	-7.106117e-01	3.977998e-02	-8.029328e-05	2.226866e-01	2.226866e-01
8.050000000016974e-08	-7.098602e-01	3.978657e-02	-8.009351e-05	2.226866e-01	2.226866e-01
8.150000000017193e-08	-7.091085e-01	3.979314e-02	-7.989373e-05	2.226866e-01	2.226866e-01
8.250000000017412e-08	-7.083567e-01	3.979970e-02	-7.969393e-05	2.226866e-01	2.226866e-01
8.350000000017632e-08	-7.076046e-01	3.980624e-02	-7.949414e-05	2.226866e-01	2.226866e-01
8.450000000017851e-08	-7.068524e-01	3.981276e-02	-7.929432e-05	2.226866e-01	2.226866e-01
8.550000000018070e-08	-7.060999e-01	3.981927e-02	-7.909451e-05	2.226866e-01	2.226866e-01
8.650000000018289e-08	-7.053473e-01	3.982576e-02	-7.889469e-05	2.226866e-01	2.226866e-01
8.750000000018509e-08	-7.045945e-01	3.983224e-02	-7.869486e-05	2.226866e-01	2.226866e-01
8.850000000018728e-08	-7.038415e-01	3.983870e-02	-7.849502e-05	2.226866e-01	2.226866e-01
8.950000000018947e-08	-7.030883e-01	3.984514e-02	-7.829518e-05	2.226866e-01	2.226866e-01
9.050000000019166e-08	-7.023349e-01	3.985157e-02	-7.809533e-05	2.226866e-01	2.226866e-01
9.150000000019386e-08	-7.015814e-01	3.985798e-02	-7.789547e-05	2.226866e-01	2.226866e-01
9.250000000019605e-08	-7.008277e-01	3.986438e-02	-7.769560e-05	2.226866e-01	2.226866e-01
9.350000000019824e-08	-7.000738e-01	3.987075e-02	-7.749573e-05	2.226866e-01	2.226866e-01
9.450000000020043e-08	-6.993197e-01	3.987712e-02	-7.729585e-05	2.226866e-01	2.226866e-01
9.550000000020263e-08	-6.985654e-01	3.988346e-02	-7.709597e-05	2.226866e-01	2.226866e-01
9.650000000020482e-08	-6.978109e-01	3.988979e-02	-7.689607e-05	2.226866e-01	2.226866e-01
9.750000000020701e-08	-6.970562e-01	3.989610e-02	-7.669617e-05	2.226866e-01	2.226866e-01
9.850000000020921e-08	-6.963014e-01	3.990240e-02	-7.649627e-05	2.226866e-01	2.226866e-01
9.950000000021140e-08	-6.955464e-01	3.990868e-02	-7.629635e-05	2.226866e-01	2.226866e-01
1.005000000002136e-07	-6.947912e-01	3.991494e-02	-7.609644e-05	2.226866e-01	2.226866e-01
1.015000000002158e-07	-6.940358e-01	3.992119e-02	-7.589652e-05	2.226866e-01	2.226866e-01
1.025000000002180e-07	-6.932803e-01	3.992742e-02	-7.569658e-05	2.226866e-01	2.226866e-01
1.035000000002202e-07	-6.925245e-01	3.993364e-02	-7.549665e-05	2.226866e-01	2.226866e-01
1.045000000002224e-07	-6.917686e-01	3.993984e-02	-7.529670e-05	2.226866e-01	2.226866e-01
1.055000000002246e-07	-6.910125e-01	3.994602e-02	-7.509676e-05	2.226866e-01	2.226866e-01
1.065000000002267e-07	-6.902562e-01	3.995219e-02	-7.489680e-05	2.226866e-01	2.226866e-01
1.075000000002289e-07	-6.894997e-01	3.995834e-02	-7.469684e-05	2.226866e-01	2.226866e-01
1.085000000002311e-07	-6.887431e-01	3.996447e-02	-7.449688e-05	2.226866e-01	2.226866e-01
1.095000000002333e-07	-6.879863e-01	3.997059e-02	-7.429691e-05	2.226866e-01	2.226866e-01
1.105000000002355e-07	-6.872293e-01	3.997669e-02	-7.409693e-05	2.226866e-01	2.226866e-01
1.115000000002377e-07	-6.864721e-01	3.998277e-02	-7.389695e-05	2.226866e-01	2.226866e-01
1.125000000002399e-07	-6.857147e-01	3.998884e-02	-7.369696e-05	2.226866e-01	2.226866e-01
1.135000000002421e-07	-6.849572e-01	3.999490e-02	-7.349697e-05	2.226866e-01	2.226866e-01
1.145000000002443e-07	-6.841995e-01	4.000093e-02	-7.329697e-05	2.226866e-01	2.226866e-01
1.155000000002465e-07	-6.834416e-01	4.000695e-02	-7.309697e-05	2.226866e-01	2.226866e-01
1.165000000002487e-07	-6.826835e-01	4.001295e-02	-7.289696e-05	2.226866e-01	2.226866e-01
1.175000000002509e-07	-6.819252e-01	4.001894e-02	-7.269695e-05	2.226866e-01	2.226866e-01
1.185000000002531e-07	-6.811668e-01	4.002491e-02	-7.249694e-05	2.226866e-01	2.226866e-01
1.195000000002553e-07	-6.804082e-01	4.003086e-02	-7.229691e-05	2.226866e-01	2.226866e-01
1.205000000002574e-07	-6.796495e-01	4.003680e-02	-7.209689e-05	2.226866e-01	2.226866e-01
1.215000000002596e-07	-6.788905e-01	4.004272e-02	-7.189686e-05	2.226866e-01	2.226866e-01
1.225000000002618e-07	-6.781314e-01	4.004863e-02	-7.169682e-05	2.226866e-01	2.226866e-01
1.235000000002640e-07	-6.773721e-01	4.005452e-02	-7.149678e-05	2.226866e-01	2.226866e-01
1.245000000002662e-07	-6.766126e-01	4.006039e-02	-7.129674e-05	2.226866e-01	2.226866e-01
1.255000000002684e-07	-6.758530e-01	4.006625e-02	-7.109669e-05	2.226866e-01	2.226866e-01
1.265000000002706e-07	-6.750932e-01	4.007209e-02	-7.089664e-05	2.226866e-01	2.226866e-01
1.275000000002728e-07	-6.743332e-01	4.007791e-02	-7.069659e-05	2.226866e-01	2.226866e-01
1.285000000002750e-07	-6.735730e-01	4.008372e-02	-7.049653e-05	2.226866e-01	2.226866e-01
1.295000000002772e-07	-6.728127e-01	4.008951e-02	-7.029646e-05	2.226866e-01	2.226866e-01
1.305000000002794e-07	-6.720521e-01	4.009528e-02	-7.009639e-05	2.226866e-01	2.226866e-01
1.315000000002816e-07	-6.712915e-01	4.010104e-02	-6.989632e-05	2.226866e-01	2.226866e-01
1.325000000002838e-07	-6.705306e-01	4.010678e-02	-6.969625e-05	2.226866e-01	2.226866e-01
1.335000000002860e-07	-6.697696e-01	4.011251e-02	-6.949617e-05	2.226866e-01	2.226866e-01
1.345000000002881e-07	-6.690084e-01	4.011822e-02	-6.929609e-05	2.226866e-01	2.226866e-01
1.355000000002903e-07	-6.682470e-01	4.012391e-02	-6.909600e-05	2.226866e-01	2.226866e-01
1.365000000002925e-07	-6.674855e-01	4.012959e-02	-6.889591e-05	2.226866e-01	2.226866e-01
1.375000000002947e-07	-6.667238e-01	4.013525e-02	-6.869582e-05	2.226866e-01	2.226866e-01
1.385000000002969e-07	-6.659619e-01	4.014090e-02	-6.849573e-05	2.226866e-01	2.226866e-01
1.395000000002991e-07	-6.651999e-01	4.014653e-02	-6.829563e-05	2.226866e-01	2.226866e-01
1.405000000003013e-07	-6.644377e-01	4.015214e-02	-6.809553e-05	2.226866e-01	2.226866e-01
1.415000000003035e-07	-6.636753e-01	4.015773e-02	-6.789542e-05	2.226866e-01	2.226866e-01
1.425000000003057e-07	-6.629128e-01	4.016331e-02	-6.769532e-05	2.226866e-01	2.226866e-01
1.435000000003079e-07	-6.621500e-01	4.016887e-02	-6.749521e-05	2.226866e-01	2.226866e-01
1.445000000003101e-07	-6.613871e-01	4.017442e-02	-6.729510e-05	2.226866e-01	2.226866e-01
1.455000000003123e-07	-6.606241e-01	4.017995e-02	-6.709499e-05	2.226866e-01	2.226866e-01
1.465000000003145e-07	-6.598609e-01	4.018546e-02	-6.689487e-05	2.226866e-01	2.226866e-01
1.475000000003166e-07	-6.590975e-01	4.019096e-02	-6.669475e-05	2.226866e-01	2.226866e-01
1.485000000003188e-07	-6.583340e-01	4.019644e-02	-6.649463e-05	2.226866e-01	2.226866e-01
1.495000000003210e-07	-6.575702e-01	4.020191e-02	-6.629450e-05	2.226866e-01	2.226866e-01
1.505000000003232e-07	-6.568063e-01	4.020736e-02	-6.609438e-05	2.226866e-01	2.226866e-01
1.515000000003254e-07	-6.560423e-01	4.021279e-02	-6.589425e-05	2.226866e-01	2.226866e-01
1.525000000003276e-07	-6.552781e-01	4.021820e-02	-6.569413e-05	2.226866e-01	2.226866e-01
1.535000000003298e-07	-6.545137e-01	4.022360e-02	-6.549399e-05	2.226866e-01	2.226866e-01
1.545000000003320e-07	-6.537492e-01	4.022899e-02	-6.529386e-05	2.226866e-01	2.226866e-01
1.555000000003342e-07	-6.529844e-01	4.023435e-02	-6.509372e-05	2.226866e-01	2.226866e-01
1.565000000003364e-07	-6.522196e-01	4.023970e-02	-6.489359e-05	2.226866e-01	2.226866e-01
1.575000000003386e-07	-6.514546e-01	4.024504e-02	-6.469345e-05	2.226866e-01	2.226866e-01
1.585000000003408e-07	-6.506894e-01	4.025036e-02	-6.449331e-05	2.226866e-01	2.226866e-01
1.595000000003430e-07	-6.499240e-01	4.025566e-02	-6.429317e-05	2.226866e-01	2.226866e-01
1.605000000003452e-07	-6.491585e-01	4.026094e-02	-6.409302e-05	2.226866e-01	2.226866e-01
1.615000000003473e-07	-6.483928e-01	4.026621e-02	-6.389288e-05	2.226866e-01	2.226866e-01
1.625000000003495e-07	-6.476269e-01	4.027146e-02	-6.369274e-05	2.226866e-01	2.226866e-01
1.635000000003517e-07	-6.468610e-01	4.027670e-02	-6.349259e-05	2.226866e-01	2.226866e-01
1.645000000003539e-07	-6.460948e-01	4.028192e-02	-6.329244e-05	2.226866e-01	2.226866e-01
1.655000000003561e-07	-6.453285e-01	4.028713e-02	-6.309230e-05	2.226866e-01	2.226866e-01
1.665000000003583e-07	-6.445619e-01	4.029231e-02	-6.289215e-05	2.226866e-01	2.226866e-01
1.675000000003605e-07	-6.437953e-01	4.029748e-02	-6.269200e-05	2.226866e-01	2.226866e-01
1.685000000003627e-07	-6.430285e-01	4.030264e-02	-6.249185e-05	2.226866e-01	2.226866e-01
1.695000000003649e-07	-6.422616e-01	4.030778e-02	-6.229170e-05	2.226866e-01	2.226866e-01
1.705000000003671e-07	-6.414944e-01	4.031290e-02	-6.209155e-05	2.226866e-01	2.226866e-01
1.715000000003693e-07	-6.407271e-01	4.031800e-02	-6.189139e-05	2.226866e-01	2.226866e-01
1.725000000003715e-07	-6.399597e-01	4.032309e-02	-6.169124e-05	2.226866e-01	2.226866e-01
1.735000000003737e-07	-6.391921e-01	4.032817e-02	-6.149109e-05	2.226866e-01	2.226866e-01
1.745000000003759e-07	-6.384243e-01	4.033322e-02	-6.129094e-05	2.226866e-01	2.226866e-01
1.755000000003780e-07	-6.376564e-01	4.033826e-02	-6.109079e-05	2.226866e-01	2.226866e-01
1.765000000003802e-07	-6.368883e-01	4.034329e-02	-6.089063e-05	2.226866e-01	2.226866e-01
1.775000000003824e-07	-6.361201e-01	4.034830e-02	-6.069048e-05	2.226866e-01	2.226866e-01
1.785000000003846e-07	-6.353517e-01	4.035329e-02	-6.049033e-05	2.226866e-01	2.226866e-01
1.795000000003868e-07	-6.345832e-01	4.035826e-02	-6.029017e-05	2.226866e-01	2.226866e-01
1.805000000003890e-07	-6.338145e-01	4.036322e-02	-6.009002e-05	2.226866e-01	2.226866e-01
1.815000000003912e-07	-6.330456e-01	4.036817e-02	-5.988987e-05	2.226866e-01	2.226866e-01
1.825000000003934e-07	-6.322766e-01	4.037309e-02	-5.968972e-05	2.226866e-01	2.226866e-01
1.835000000003956e-07	-6.315074e-01	4.037800e-02	-5.948957e-05	2.226866e-01	2.226866e-01
1.845000000003978e-07	-6.307381e-01	4.038290e-02	-5.928942e-05	2.226866e-01	2.226866e-01
1.855000000004000e-07	-6.299686e-01	4.038777e-02	-5.908927e-05	2.226866e-01	2.226866e-01
1.865000000004022e-07	-6.291990e-01	4.039263e-02	-5.888912e-05	2.226866e-01	2.226866e-01
1.875000000004044e-07	-6.284292e-01	4.039748e-02	-5.868897e-05	2.226866e-01	2.226866e-01
1.885000000004065e-07	-6.276593e-01	4.040230e-02	-5.848883e-05	2.226866e-01	2.226866e-01
1.895000000004087e-07	-6.268892e-01	4.040712e-02	-5.828868e-05	2.226866e-01	2.226866e-01
1.905000000004109e-07	-6.261190e-01	4.041191e-02	-5.808854e-05	2.226866e-01	2.226866e-01
1.915000000004131e-07	-6.253486e-01	4.041669e-02	-5.788839e-05	2.226866e-01	2.226866e-01
1.925000000004153e-07	-6.245780e-01	4.042146e-02	-5.768825e-05	2.226866e-01	2.226866e-01
1.935000000004175e-07	-6.238073e-01	4.042620e-02	-5.748811e-05	2.226866e-01	2.226866e-01
1.945000000004197e-07	-6.230364e-01	4.043093e-02	-5.728797e-05	2.226866e-01	2.226866e-01
1.955000000004219e-07	-6.222655e-01	4.043565e-02	-5.708783e-05	2.226866e-01	2.226866e-01
1.965000000004241e-07	-6.214943e-01	4.044034e-02	-5.688769e-05	2.226866e-01	2.226866e-01
1.975000000004263e-07	-6.207230e-01	4.044503e-02	-5.668756e-05	2.226866e-01	2.226866e-01
1.985000000004285e-07	-6.199515e-01	4.044969e-02	-5.648742e-05	2.226866e-01	2.226866e-01
1.995000000004307e-07	-6.191800e-01	4.045434e-02	-5.628729e-05	2.226866e-01	2.226866e-01
2.005000000004329e-07	-6.184082e-01	4.045897e-02	-5.608716e-05	2.226866e-01	2.226866e-01
2.015000000004351e-07	-6.176363e-01	4.046359e-02	-5.588703e-05	2.226866e-01	2.226866e-01
2.025000000004372e-07	-6.168642e-01	4.046819e-02	-5.568691e-05	2.226866e-01	2.226866e-01
2.035000000004394e-07	-6.160920e-01	4.047277e-02	-5.548678e-05	2.226866e-01	2.226866e-01
2.045000000004416e-07	-6.153197e-01	4.047734e-02	-5.528666e-05	2.226866e-01	2.226866e-01
2.055000000004438e-07	-6.145472e-01	4.048189e-02	-5.508654e-05	2.226866e-01	2.226866e-01
2.065000000004460e-07	-6.137745e-01	4.048642e-02	-5.488643e-05	2.226866e-01	2.226866e-01
2.075000000004482e-07	-6.130018e-01	4.049094e-02	-5.468631e-05	2.226866e-01	2.226866e-01
2.085000000004504e-07	-6.122288e-01	4.049544e-02	-5.448620e-05	2.226866e-01	2.226866e-01
2.095000000004526e-07	-6.114557e-01	4.049993e-02	-5.428609e-05	2.226866e-01	2.226866e-01
2.105000000004548e-07	-6.106825e-01	4.050440e-02	-5.408598e-05	2.226866e-01	2.226866e-01
2.115000000004570e-07	-6.099091e-01	4.050885e-02	-5.388588e-05	2.226866e-01	2.226866e-01
2.125000000004592e-07	-6.091356e-01	4.051329e-02	-5.368578e-05	2.226866e-01	2.226866e-01
2.135000000004614e-07	-6.083619e-01	4.051771e-02	-5.348568e-05	2.226866e-01	2.226866e-01
2.145000000004636e-07	-6.075881e-01	4.052211e-02	-5.328558e-05	2.226866e-01	2.226866e-01
2.155000000004658e-07	-6.068141e-01	4.052650e-02	-5.308549e-05	2.226866e-01	2.226866e-01
2.165000000004679e-07	-6.060401e-01	4.053087e-02	-5.288540e-05	2.226866e-01	2.226866e-01
2.175000000004701e-07	-6.052658e-01	4.053523e-02	-5.268531e-05	2.226866e-01	2.226866e-01
2.185000000004723e-07	-6.044914e-01	4.053956e-02	-5.248523e-05	2.226866e-01	2.226866e-01
2.195000000004745e-07	-6.037169e-01	4.054389e-02	-5.228515e-05	2.226866e-01	2.226866e-01
2.205000000004767e-07	-6.029422e-01	4.054819e-02	-5.208507e-05	2.226866e-01	2.226866e-01
